!    26/06/2026   14:24:29 
! Ref Plane: 0.000 mm
# MHZ S MA R  50
!
10.0000       0.03441       -157.53       1.034E0       -7.17         5.228E-5      -42.43        0.91013       -20.15         
13.9900       0.03532       -121.56       1.038E0       -9.94         1.203E-5      159.02        0.91323       -19.71         
17.9800       0.05484       -99.17        1.036E0       -12.62        2.999E-5      174.75        0.91609       -19.28         
21.9700       0.08236       -93.17        1.032E0       -15.24        2.231E-5      127.72        0.91893       -18.88         
25.9600       0.11206       -93.04        1.026E0       -17.97        3.355E-5      75.91         0.92206       -18.51         
29.9500       0.14197       -95.05        1.019E0       -20.49        5.076E-5      39.95         0.92476       -18.18         
33.9400       0.17151       -97.94        1.012E0       -23.00        1.697E-5      -127.62       0.92799       -17.86         
37.9300       0.20005       -101.14       1.005E0       -25.50        2.197E-5      -97.80        0.93028       -17.56         
41.9200       0.22748       -104.43       9.967E-1      -27.96        2.355E-5      -119.32       0.93243       -17.27         
45.9100       0.25376       -107.75       9.891E-1      -30.37        6.352E-5      -70.84        0.93442       -17.00         
49.9000       0.27907       -111.09       9.704E-1      -32.73        7.379E-5      -20.52        0.93619       -16.78         
53.8900       0.30287       -114.35       9.671E-1      -35.29        4.588E-5      51.41         0.93772       -16.55         
57.8800       0.32518       -117.53       9.663E-1      -37.58        2.115E-5      68.98         0.93905       -16.30         
61.8700       0.34648       -120.60       9.577E-1      -39.95        4.965E-5      -60.83        0.94002       -16.14         
65.8600       0.36629       -123.71       9.478E-1      -42.45        3.181E-5      56.40         0.94066       -15.96         
69.8500       0.38483       -126.70       9.391E-1      -44.12        2.364E-6      -59.22        0.94083       -15.81         
73.8400       0.40191       -129.55       9.326E-1      -46.64        1.639E-5      63.93         0.94082       -15.71         
77.8300       0.41788       -132.51       9.239E-1      -48.63        3.754E-5      -135.61       0.94048       -15.60         
81.8200       0.4324        -135.30       9.166E-1      -50.78        1.533E-5      -95.60        0.93984       -15.54         
85.8100       0.44553       -138.02       9.116E-1      -53.12        3.582E-5      37.36         0.93899       -15.53         
89.8000       0.45735       -140.70       9.048E-1      -55.07        5.603E-5      -169.45       0.93786       -15.54         
93.7900       0.46864       -143.42       8.902E-1      -56.99        3.397E-5      106.63        0.93668       -15.62         
97.7800       0.47793       -145.97       8.85E-1       -58.93        3.056E-5      -38.51        0.93488       -15.66         
101.7700      0.48619       -148.44       8.86E-1       -60.62        4.428E-5      -5.71         0.93285       -15.75         
105.7600      0.49289       -150.82       8.886E-1      -62.00        5.99E-5       -106.34       0.93089       -15.87         
109.7500      0.4991        -153.25       8.847E-1      -64.47        2.238E-5      -152.11       0.9288        -16.01         
113.7400      0.50451       -155.61       8.798E-1      -66.83        2.437E-5      -67.92        0.92683       -16.15         
117.7300      0.50916       -157.92       8.775E-1      -68.90        5.642E-5      85.81         0.92481       -16.31         
121.7200      0.51299       -160.16       8.749E-1      -70.80        4.912E-5      -91.59        0.92292       -16.47         
125.7100      0.51608       -162.38       8.723E-1      -72.79        3.274E-5      -163.27       0.9212        -16.64         
129.7000      0.51833       -164.53       8.693E-1      -74.69        5.159E-5      -65.97        0.91955       -16.80         
133.6900      0.52011       -166.66       8.658E-1      -76.58        3.549E-5      71.60         0.91821       -16.96         
137.6800      0.52119       -168.76       8.649E-1      -78.66        4.29E-5       -152.78       0.91714       -17.12         
141.6700      0.52163       -170.83       8.628E-1      -80.71        4.013E-5      149.80        0.91646       -17.26         
145.6600      0.52151       -172.88       8.62E-1       -82.65        2.284E-5      -137.64       0.91602       -17.38         
149.6500      0.52093       -174.91       8.613E-1      -84.53        2.744E-5      139.55        0.91592       -17.50         
153.6400      0.51983       -176.95       8.613E-1      -86.45        1.799E-5      -81.39        0.91611       -17.59         
157.6300      0.51834       -178.99       8.606E-1      -88.28        1.082E-4      171.61        0.91673       -17.66         
161.6200      0.5163        178.98        8.617E-1      -90.23        1.126E-4      79.35         0.9176        -17.71         
165.6100      0.51357       176.93        8.62E-1       -92.14        3.298E-5      167.36        0.91885       -17.75         
169.6000      0.51033       174.85        8.642E-1      -94.09        1.112E-4      -170.29       0.92034       -17.76         
173.5900      0.50653       172.75        8.649E-1      -96.10        2.494E-5      124.24        0.92197       -17.76         
177.5800      0.50201       170.61        8.676E-1      -98.06        7.522E-5      -169.36       0.92387       -17.75         
181.5700      0.49676       168.45        8.704E-1      -100.02       5.732E-5      -156.11       0.92587       -17.71         
185.5600      0.49064       166.22        8.734E-1      -102.04       6.773E-5      158.10        0.92803       -17.67         
189.5500      0.48377       163.96        8.781E-1      -104.07       1.923E-5      157.03        0.93039       -17.60         
193.5400      0.47606       161.65        8.82E-1       -106.10       6.567E-5      -71.46        0.93257       -17.55         
197.5300      0.46753       159.30        8.868E-1      -108.17       6.693E-5      137.12        0.93475       -17.48         
201.5200      0.45811       156.90        8.906E-1      -110.25       3.705E-5      127.13        0.937         -17.42         
205.5100      0.44777       154.44        8.955E-1      -112.36       3.396E-5      -19.61        0.93907       -17.36         
209.5000      0.43637       151.97        9.007E-1      -114.53       5.486E-5      57.11         0.94103       -17.29         
213.4900      0.42368       149.46        9.068E-1      -116.69       5.661E-5      127.22        0.94284       -17.24         
217.4800      0.40992       146.90        9.126E-1      -118.95       1.515E-5      101.46        0.94431       -17.21         
221.4700      0.39505       144.33        9.191E-1      -121.23       1.682E-5      -151.38       0.94565       -17.18         
225.4600      0.37907       141.73        9.253E-1      -123.52       3.529E-5      -163.26       0.94664       -17.17         
229.4500      0.36197       139.10        9.31E-1       -125.86       7.377E-5      -126.36       0.94755       -17.18         
233.4400      0.34397       136.48        9.376E-1      -128.31       1.583E-5      -143.08       0.94797       -17.18         
237.4300      0.32495       133.83        9.433E-1      -130.83       2.786E-5      44.64         0.94809       -17.22         
241.4200      0.30508       131.19        9.499E-1      -133.30       9.532E-6      13.90         0.94791       -17.26         
245.4100      0.28444       128.56        9.553E-1      -135.93       2.107E-5      89.38         0.9476        -17.32         
249.4000      0.26306       125.95        9.605E-1      -138.52       2.415E-5      -34.94        0.94692       -17.39         
253.3900      0.24106       123.31        9.66E-1       -141.10       3.621E-5      39.16         0.94628       -17.47         
257.3800      0.2186        120.64        9.70E-1       -143.72       5.152E-5      179.71        0.94548       -17.56         
261.3700      0.19549       117.85        9.739E-1      -146.43       2.58E-5       140.78        0.94479       -17.66         
265.3600      0.17165       114.75        9.762E-1      -149.15       5.349E-5      83.19         0.94445       -17.76         
269.3500      0.14663       111.08        9.781E-1      -151.83       4.969E-5      138.24        0.94459       -17.91         
273.3400      0.11946       106.38        9.802E-1      -154.52       2.859E-5      2.71          0.94459       -18.13         
277.3300      0.08862       100.17        9.806E-1      -157.19       1.511E-5      -148.58       0.94332       -18.44         
281.3200      0.05362       93.10         9.833E-1      -159.94       2.835E-5      -89.06        0.93981       -18.71         
285.3100      0.01851       91.37         9.869E-1      -162.84       3.077E-6      122.90        0.93548       -18.88         
289.3000      0.01161       -115.27       9.866E-1      -165.89       4.921E-5      -76.83        0.93154       -18.96         
293.2900      0.03508       -105.83       9.839E-1      -168.88       6.312E-5      113.52        0.92836       -18.98         
297.2800      0.05653       -102.72       9.80E-1       -171.80       3.291E-5      125.17        0.9258        -18.96         
301.2700      0.07819       -100.71       9.75E-1       -174.73       1.644E-5      18.65         0.92385       -18.91         
305.2600      0.10065       -99.63        9.712E-1      -177.61       7.037E-5      -158.61       0.92241       -18.83         
309.2500      0.12414       -99.31        9.66E-1       179.46        3.372E-5      -34.37        0.92115       -18.72         
313.2400      0.14859       -99.54        9.606E-1      176.64        6.461E-5      -47.23        0.92042       -18.57         
317.2300      0.1739        -100.22       9.543E-1      173.74        4.923E-5      -22.82        0.92006       -18.39         
321.2200      0.20005       -101.29       9.48E-1       170.87        6.861E-5      -5.04         0.92006       -18.18         
325.2100      0.22689       -102.61       9.398E-1      167.94        6.648E-5      117.39        0.92023       -17.95         
329.2000      0.25411       -104.22       9.31E-1       165.13        2.123E-5      -90.00        0.92091       -17.68         
333.1900      0.28165       -106.03       9.217E-1      162.18        3.612E-5      -177.53       0.92179       -17.40         
337.1800      0.30934       -108.00       9.117E-1      159.39        1.328E-5      -120.52       0.92289       -17.09         
341.1700      0.33679       -110.16       9.009E-1      156.54        2.474E-5      97.58         0.92413       -16.77         
345.1600      0.36392       -112.44       8.886E-1      153.76        2.444E-5      -102.63       0.92562       -16.45         
349.1500      0.39045       -114.85       8.759E-1      150.99        5.593E-5      -139.36       0.92735       -16.12         
353.1400      0.41616       -117.34       8.633E-1      148.37        5.325E-5      155.13        0.92919       -15.81         
357.1300      0.44083       -119.89       8.499E-1      145.77        3.199E-5      43.77         0.93117       -15.49         
361.1200      0.46438       -122.49       8.363E-1      143.34        1.952E-5      153.26        0.93308       -15.21         
365.1100      0.48665       -125.13       8.223E-1      140.89        4.671E-5      -152.32       0.93522       -14.94         
369.1000      0.50751       -127.75       8.088E-1      138.58        2.587E-5      132.63        0.93727       -14.69         
373.0900      0.52688       -130.37       7.955E-1      136.32        2.188E-5      -174.27       0.93933       -14.49         
377.0800      0.54474       -132.96       7.824E-1      134.12        4.768E-5      119.04        0.94145       -14.32         
381.0700      0.56113       -135.52       7.703E-1      131.97        6.013E-5      152.62        0.94312       -14.18         
385.0600      0.57616       -138.03       7.585E-1      129.90        7.067E-5      120.82        0.94435       -14.09         
389.0500      0.58984       -140.50       7.477E-1      127.79        2.938E-5      170.56        0.94536       -14.05         
393.0400      0.60247       -142.92       7.379E-1      125.80        3.441E-5      -0.81         0.94607       -14.06         
397.0300      0.61405       -145.29       7.274E-1      123.86        8.391E-5      -144.24       0.94635       -14.12         
401.0200      0.62497       -147.64       7.174E-1      121.95        4.476E-5      174.46        0.94609       -14.22         
405.0100      0.63517       -149.98       7.09E-1       120.09        3.933E-5      106.69        0.94567       -14.38         
409.0000      0.64445       -152.36       7.003E-1      118.37        2.936E-5      -12.72        0.94516       -14.58         
412.9900      0.65272       -154.79       6.94E-1       116.71        1.402E-5      -135.14       0.94463       -14.85         
416.9800      0.65933       -157.28       6.905E-1      115.00        1.346E-5      -22.57        0.94407       -15.18         
420.9700      0.66386       -159.82       6.88E-1       113.17        6.085E-5      -154.99       0.94297       -15.60         
424.9600      0.66614       -162.35       6.854E-1      111.31        3.261E-5      -107.58       0.94142       -16.08         
428.9500      0.66626       -164.84       6.844E-1      109.38        2.606E-5      -109.27       0.93926       -16.62         
432.9400      0.66462       -167.26       6.824E-1      107.31        8.778E-6      119.13        0.93677       -17.18         
436.9300      0.6614        -169.61       6.819E-1      105.32        4.56E-5       -63.83        0.9338        -17.76         
440.9200      0.65662       -171.92       6.823E-1      103.17        6.093E-5      75.30         0.93066       -18.36         
444.9100      0.65035       -174.18       6.84E-1       100.84        5.107E-5      -107.43       0.92752       -18.95         
448.9000      0.64208       -176.42       6.855E-1      98.28         5.39E-5       -105.47       0.92436       -19.53         
452.8900      0.63126       -178.66       6.888E-1      95.51         9.836E-5      23.27         0.92138       -20.09         
456.8800      0.61716       179.14        6.924E-1      92.47         1.885E-5      -114.31       0.91877       -20.62         
460.8700      0.59847       177.01        6.964E-1      89.02         7.521E-5      112.97        0.91634       -21.11         
464.8600      0.5734        175.12        6.985E-1      85.00         6.106E-5      -69.04        0.91421       -21.57         
468.8500      0.54026       173.84        6.965E-1      80.12         8.947E-5      -65.28        0.91256       -21.96         
472.8400      0.49778       174.00        6.866E-1      74.15         1.342E-5      178.32        0.91132       -22.29         
476.8300      0.45109       177.99        6.545E-1      66.74         1.065E-4      44.44         0.91067       -22.56         
480.8200      0.44134       -171.88       5.78E-1       58.85         3.484E-5      28.60         0.91029       -22.75         
484.8100      0.52017       -163.95       4.594E-1      55.82         3.00E-5       -128.59       0.9103        -22.87         
488.8000      0.6283        -165.96       3.763E-1      63.97         5.062E-5      -92.42        0.91084       -22.92         
492.7900      0.69671       -172.02       3.754E-1      74.48         2.386E-5      -69.21        0.91172       -22.89         
496.7800      0.72788       -177.99       4.073E-1      78.79         2.515E-5      178.56        0.91296       -22.77         
500.7700      0.7401        176.89        4.368E-1      78.98         2.739E-5      40.28         0.91458       -22.58         
504.7600      0.7437        172.41        4.562E-1      77.33         3.212E-5      118.96        0.91639       -22.32         
508.7500      0.74348       168.29        4.673E-1      75.07         2.547E-5      -58.25        0.91851       -21.99         
512.7400      0.74142       164.29        4.701E-1      72.47         1.206E-4      10.81         0.92072       -21.59         
516.7300      0.73805       160.22        4.662E-1      69.78         2.961E-5      66.54         0.92326       -21.15         
520.7200      0.7331        155.89        4.547E-1      67.27         1.255E-5      108.84        0.92581       -20.66         
524.7100      0.72545       151.13        4.365E-1      65.12         3.676E-5      144.43        0.92845       -20.13         
528.7000      0.71314       145.70        4.095E-1      63.96         2.201E-5      119.21        0.93104       -19.56         
532.6900      0.69197       139.39        3.756E-1      64.79         3.41E-5       58.57         0.93345       -18.97         
536.6800      0.65536       132.05        3.427E-1      69.71         2.889E-5      103.29        0.93584       -18.37         
540.6700      0.59402       123.91        3.354E-1      80.07         4.619E-5      179.96        0.93782       -17.76         
544.6600      0.5027        116.26        3.853E-1      90.36         5.407E-5      29.56         0.93959       -17.15         
548.6500      0.39371       112.20        4.826E-1      93.01         4.451E-5      54.93         0.94115       -16.55         
552.6400      0.30071       115.73        5.845E-1      89.08         3.551E-5      27.11         0.94209       -15.98         
556.6300      0.25355       126.33        6.606E-1      82.61         2.529E-5      -35.72        0.94293       -15.43         
560.6200      0.24771       136.44        7.12E-1       75.91         3.363E-5      23.29         0.94333       -14.90         
564.6100      0.25731       141.54        7.445E-1      69.71         2.709E-5      -82.00        0.94349       -14.42         
568.6000      0.26542       142.71        7.663E-1      64.16         6.245E-5      89.50         0.9434        -13.98         
572.5900      0.26637       141.75        7.819E-1      58.98         3.571E-5      -28.22        0.94313       -13.61         
576.5800      0.2593        139.73        7.926E-1      54.17         1.759E-5      -104.67       0.94262       -13.32         
580.5700      0.24472       137.25        8.014E-1      49.52         4.51E-5       -11.91        0.94179       -13.11         
584.5600      0.22362       134.75        8.089E-1      45.07         5.218E-5      65.76         0.94044       -13.01         
588.5500      0.19689       132.59        8.136E-1      40.60         5.554E-5      88.02         0.93859       -13.00         
592.5400      0.16583       131.30        8.173E-1      36.26         3.801E-5      -28.50        0.93618       -13.09         
596.5300      0.13143       131.78        8.20E-1       31.90         3.658E-5      -118.85       0.93304       -13.27         
600.5200      0.0955        136.41        8.195E-1      27.57         3.154E-5      10.43         0.92932       -13.53         
604.5100      0.06265       152.46        8.172E-1      23.19         3.129E-5      109.34        0.92528       -13.88         
608.5000      0.04906       -166.60       8.122E-1      18.84         5.734E-6      157.70        0.92077       -14.31         
612.4900      0.07097       -130.61       8.055E-1      14.53         9.675E-6      154.61        0.9161        -14.81         
616.4800      0.10996       -117.91       7.957E-1      10.20         6.895E-5      -57.36        0.91135       -15.39         
620.4700      0.15363       -114.34       7.846E-1      5.93          1.823E-5      6.63          0.90672       -16.02         
624.4600      0.19845       -114.28       7.701E-1      1.70          4.045E-5      -95.49        0.9022        -16.71         
