!    26/06/2026   13:22:55 
! Ref Plane: 0,000 mm
# MHZ S MA R  50
!
10,0000       0,03063       -47,47        9,211E-1      -6,31          
13,9900       0,05531       -56,72        9,163E-1      -8,88          
17,9800       0,0831        -64,25        9,158E-1      -11,39         
21,9700       0,11244       -71,18        9,134E-1      -13,95         
25,9600       0,14197       -77,43        9,115E-1      -16,49         
29,9500       0,17126       -83,13        9,082E-1      -19,06         
33,9400       0,19995       -88,45        9,047E-1      -21,67         
37,9300       0,22751       -93,25        8,997E-1      -24,22         
41,9200       0,25429       -97,82        8,938E-1      -26,69         
45,9100       0,2799        -102,11       8,883E-1      -29,11         
49,9000       0,30436       -106,21       8,818E-1      -31,52         
53,8900       0,32774       -110,09       8,748E-1      -33,90         
57,8800       0,3499        -113,83       8,679E-1      -36,14         
61,8700       0,37077       -117,41       8,599E-1      -38,44         
65,8600       0,39034       -120,86       8,531E-1      -40,69         
69,8500       0,40865       -124,18       8,459E-1      -42,87         
73,8400       0,42579       -127,41       8,40E-1       -44,95         
77,8300       0,44153       -130,54       8,329E-1      -47,08         
81,8200       0,45602       -133,58       8,274E-1      -49,25         
85,8100       0,46925       -136,55       8,214E-1      -51,10         
89,8000       0,48122       -139,42       8,163E-1      -53,04         
93,7900       0,492         -142,21       8,104E-1      -54,91         
97,7800       0,50151       -144,92       8,055E-1      -56,84         
101,7700      0,50984       -147,58       8,024E-1      -58,68         
105,7600      0,51716       -150,16       7,981E-1      -60,50         
109,7500      0,52366       -152,67       7,954E-1      -62,59         
113,7400      0,52925       -155,12       7,917E-1      -64,38         
117,7300      0,53395       -157,50       7,898E-1      -66,23         
121,7200      0,53784       -159,82       7,885E-1      -67,96         
125,7100      0,54093       -162,10       7,863E-1      -69,78         
129,7000      0,54325       -164,31       7,845E-1      -71,62         
133,6900      0,54486       -166,50       7,841E-1      -73,42         
137,6800      0,54583       -168,67       7,842E-1      -75,22         
141,6700      0,54622       -170,79       7,836E-1      -77,05         
145,6600      0,5461        -172,87       7,844E-1      -78,91         
149,6500      0,54558       -174,97       7,853E-1      -80,74         
153,6400      0,54437       -177,05       7,862E-1      -82,60         
157,6300      0,54271       -179,12       7,873E-1      -84,41         
161,6200      0,54039       178,85        7,889E-1      -86,38         
165,6100      0,53799       176,82        7,898E-1      -88,29         
169,6000      0,53518       174,69        7,925E-1      -90,20         
173,5900      0,53127       172,56        7,939E-1      -92,13         
177,5800      0,52684       170,41        7,974E-1      -94,04         
181,5700      0,52172       168,24        8,004E-1      -96,03         
185,5600      0,51585       166,01        8,039E-1      -98,02         
189,5500      0,5094        163,76        8,08E-1       -100,01        
193,5400      0,50234       161,44        8,121E-1      -102,03        
197,5300      0,49446       159,03        8,169E-1      -104,04        
201,5200      0,48561       156,57        8,207E-1      -106,03        
205,5100      0,47585       154,08        8,265E-1      -108,08        
209,5000      0,46497       151,55        8,319E-1      -110,19        
213,4900      0,45292       148,98        8,38E-1       -112,29        
217,4800      0,43973       146,35        8,442E-1      -114,52        
221,4700      0,4256        143,69        8,506E-1      -116,73        
225,4600      0,41028       140,96        8,572E-1      -118,95        
229,4500      0,39367       138,20        8,63E-1       -121,24        
233,4400      0,37619       135,41        8,705E-1      -123,60        
237,4300      0,35762       132,58        8,766E-1      -126,05        
241,4200      0,33806       129,73        8,833E-1      -128,48        
245,4100      0,31767       126,85        8,895E-1      -131,03        
249,4000      0,29645       123,95        8,956E-1      -133,54        
253,3900      0,27458       121,01        9,017E-1      -136,11        
257,3800      0,25218       117,99        9,073E-1      -138,68        
261,3700      0,22927       114,81        9,128E-1      -141,34        
265,3600      0,20565       111,36        9,161E-1      -144,04        
269,3500      0,18139       107,39        9,197E-1      -146,71        
273,3400      0,15567       102,44        9,232E-1      -149,42        
277,3300      0,12728       95,98         9,252E-1      -152,17        
281,3200      0,09497       87,67         9,273E-1      -155,02        
285,3100      0,06037       78,04         9,29E-1       -157,87        
289,3000      0,02901       64,80         9,284E-1      -160,79        
293,2900      0,0094        -5,01         9,277E-1      -163,64        
297,2800      0,02605       -74,13        9,264E-1      -166,48        
301,2700      0,04899       -83,69        9,236E-1      -169,40        
305,2600      0,07272       -87,31        9,217E-1      -172,30        
309,2500      0,09721       -89,63        9,187E-1      -175,24        
313,2400      0,12241       -91,62        9,149E-1      -178,13        
317,2300      0,14839       -93,54        9,101E-1      179,01         
321,2200      0,17506       -95,51        9,053E-1      176,13         
325,2100      0,20239       -97,55        8,985E-1      173,16         
329,2000      0,23002       -99,70        8,913E-1      170,32         
333,1900      0,25801       -101,94       8,836E-1      167,37         
337,1800      0,28616       -104,27       8,746E-1      164,53         
341,1700      0,31425       -106,71       8,652E-1      161,64         
345,1600      0,34215       -109,24       8,538E-1      158,85         
349,1500      0,36944       -111,85       8,427E-1      156,06         
353,1400      0,39615       -114,53       8,314E-1      153,38         
357,1300      0,42192       -117,25       8,193E-1      150,72         
361,1200      0,44667       -120,01       8,064E-1      148,22         
365,1100      0,47024       -122,78       7,931E-1      145,76         
369,1000      0,49247       -125,55       7,804E-1      143,35         
373,0900      0,51331       -128,31       7,679E-1      141,04         
377,0800      0,53259       -131,04       7,551E-1      138,78         
381,0700      0,55055       -133,73       7,434E-1      136,57         
385,0600      0,56709       -136,38       7,316E-1      134,44         
389,0500      0,58228       -138,98       7,214E-1      132,33         
393,0400      0,59632       -141,53       7,114E-1      130,23         
397,0300      0,60932       -144,04       7,013E-1      128,15         
401,0200      0,62155       -146,51       6,916E-1      126,18         
405,0100      0,63304       -148,98       6,825E-1      124,18         
409,0000      0,64344       -151,52       6,73E-1       122,30         
412,9900      0,65228       -154,09       6,656E-1      120,53         
416,9800      0,65902       -156,69       6,596E-1      118,78         
420,9700      0,66388       -159,28       6,554E-1      116,97         
424,9600      0,66694       -161,83       6,516E-1      115,12         
428,9500      0,66831       -164,35       6,487E-1      113,26         
432,9400      0,66831       -166,82       6,46E-1       111,23         
436,9300      0,66685       -169,26       6,45E-1       109,22         
440,9200      0,66398       -171,68       6,438E-1      107,06         
444,9100      0,65956       -174,08       6,436E-1      104,81         
448,9000      0,6533        -176,49       6,441E-1      102,25         
452,8900      0,64454       -178,92       6,459E-1      99,55          
456,8800      0,63278       178,65        6,481E-1      96,59          
460,8700      0,61686       176,25        6,504E-1      93,18          
464,8600      0,59575       173,95        6,516E-1      89,23          
468,8500      0,56591       171,89        6,499E-1      84,37          
472,8400      0,52341       170,93        6,405E-1      78,29          
476,8300      0,47138       173,39        6,099E-1      70,70          
480,8200      0,44804       -177,41       5,365E-1      62,35          
484,8100      0,51893       -168,71       4,217E-1      59,13          
488,8000      0,62842       -170,43       3,442E-1      67,30          
492,7900      0,69853       -176,61       3,411E-1      77,12          
496,7800      0,73199       177,15        3,615E-1      80,72          
500,7700      0,74692       171,54        3,76E-1       80,72          
504,7600      0,75309       166,33        3,792E-1      79,32          
508,7500      0,75443       161,19        3,714E-1      77,49          
512,7400      0,75136       155,79        3,522E-1      76,40          
516,7300      0,74197       149,86        3,248E-1      76,88          
520,7200      0,72235       143,13        2,92E-1       81,05          
524,7100      0,68452       135,50        2,719E-1      91,46          
528,7000      0,62052       127,35        2,972E-1      105,41         
532,6900      0,5276        120,03        3,785E-1      112,99         
536,6800      0,41941       116,20        4,856E-1      111,71         
540,6700      0,32545       119,16        5,821E-1      105,67         
544,6600      0,27316       129,01        6,524E-1      98,21          
548,6500      0,26344       139,80        6,981E-1      91,07          
552,6400      0,27556       146,51        7,274E-1      84,64          
556,6300      0,29187       149,15        7,456E-1      78,93          
560,6200      0,30455       149,16        7,577E-1      73,82          
564,6100      0,31055       147,65        7,666E-1      69,08          
568,6000      0,30955       145,27        7,741E-1      64,73          
572,5900      0,30162       142,40        7,808E-1      60,53          
576,5800      0,28723       139,26        7,865E-1      56,44          
580,5700      0,26694       136,03        7,915E-1      52,35          
584,5600      0,24129       132,86        7,968E-1      48,36          
588,5500      0,21085       129,94        8,002E-1      44,26          
592,5400      0,17634       127,59        8,038E-1      40,20          
596,5300      0,13838       126,44        8,06E-1       36,03          
600,5200      0,09802       128,23        8,056E-1      31,86          
604,5100      0,05811       139,59        8,033E-1      27,59          
608,5000      0,03443       -170,92       7,985E-1      23,33          
612,4900      0,05952       -120,91       7,917E-1      19,02          
616,4800      0,10352       -109,42       7,823E-1      14,72          
620,4700      0,1508        -107,55       7,708E-1      10,46          
624,4600      0,19852       -108,67       7,565E-1      6,26           
628,4500      0,2456        -110,98       7,405E-1      2,10           
632,4400      0,29151       -113,87       7,227E-1      -2,00          
636,4300      0,33561       -117,03       7,036E-1      -6,01          
640,4200      0,37769       -120,35       6,835E-1      -9,91          
644,4100      0,41771       -123,73       6,613E-1      -13,74         
648,4000      0,45538       -127,09       6,387E-1      -17,43         
652,3900      0,49071       -130,43       6,158E-1      -20,97         
656,3800      0,52376       -133,74       5,929E-1      -24,46         
660,3700      0,55443       -136,98       5,693E-1      -27,74         
664,3600      0,58278       -140,13       5,46E-1       -30,97         
668,3500      0,60883       -143,22       5,224E-1      -34,10         
672,3400      0,63267       -146,25       4,997E-1      -37,00         
676,3300      0,65436       -149,18       4,777E-1      -39,98         
680,3200      0,67414       -152,05       4,55E-1       -42,84         
684,3100      0,69209       -154,86       4,332E-1      -45,60         
688,3000      0,70817       -157,59       4,118E-1      -48,22         
692,2900      0,72278       -160,24       3,893E-1      -50,75         
696,2800      0,73647       -162,80       3,68E-1       -53,25         
700,2700      0,74995       -165,34       3,464E-1      -55,44         
704,2600      0,76283       -167,90       3,257E-1      -57,68         
708,2500      0,77455       -170,52       3,043E-1      -59,65         
712,2400      0,78488       -173,16       2,829E-1      -61,48         
716,2300      0,7937        -175,83       2,615E-1      -62,89         
720,2200      0,80107       -178,51       2,406E-1      -64,02         
724,2100      0,80694       178,78        2,194E-1      -64,47         
728,2000      0,81132       176,03        1,983E-1      -64,39         
732,1900      0,81422       173,25        1,779E-1      -63,69         
736,1800      0,81534       170,42        1,586E-1      -61,50         
740,1700      0,81469       167,51        1,404E-1      -57,70         
744,1600      0,81223       164,53        1,251E-1      -51,61         
748,1500      0,80754       161,48        1,14E-1       -42,23         
752,1400      0,80035       158,33        1,108E-1      -30,64         
756,1300      0,79039       155,06        1,163E-1      -18,97         
760,1200      0,77698       151,69        1,311E-1      -9,37          
764,1100      0,75986       148,20        1,54E-1       -2,85          
768,1000      0,73826       144,60        1,822E-1      0,30           
772,0900      0,71186       140,90        2,147E-1      1,15           
776,0800      0,68005       137,14        2,489E-1      0,09           
780,0700      0,64244       133,38        2,858E-1      -2,22          
784,0600      0,5987        129,72        3,217E-1      -5,48          
788,0500      0,54898       126,37        3,562E-1      -9,42          
792,0400      0,49392       123,63        3,896E-1      -13,81         
796,0300      0,43629       122,01        4,213E-1      -18,36         
800,0200      0,38086       122,16        4,53E-1       -23,24         
804,0100      0,33306       124,36        4,834E-1      -28,31         
808,0000      0,29593       128,41        5,114E-1      -33,93         
811,9900      0,26959       133,87        5,354E-1      -39,85         
815,9800      0,25337       140,18        5,537E-1      -45,91         
819,9700      0,24689       146,71        5,669E-1      -51,90         
823,9600      0,24869       152,57        5,734E-1      -57,86         
827,9500      0,25661       157,12        5,758E-1      -63,71         
831,9400      0,2677        160,10        5,742E-1      -69,35         
835,9300      0,27931       161,59        5,685E-1      -74,93         
839,9200      0,28925       161,80        5,593E-1      -80,23         
843,9100      0,2953        160,98        5,481E-1      -85,39         
847,9000      0,29579       159,36        5,324E-1      -90,29         
851,8900      0,28898       157,21        5,158E-1      -94,89         
855,8800      0,27358       154,98        4,981E-1      -99,09         
859,8700      0,2488        153,39        4,814E-1      -102,84        
863,8600      0,21631       153,73        4,667E-1      -106,41        
867,8500      0,18088       158,10        4,553E-1      -110,11        
871,8400      0,15198       169,22        4,44E-1       -114,16        
875,8300      0,14266       -172,99       4,307E-1      -118,62        
879,8200      0,16013       -155,59       4,137E-1      -123,47        
883,8100      0,19843       -144,80       3,917E-1      -128,24        
887,8000      0,24752       -140,07       3,648E-1      -132,79        
891,7900      0,30078       -139,18       3,35E-1       -136,79        
895,7800      0,35378       -140,49       3,024E-1      -139,78        
899,7700      0,40406       -143,08       2,711E-1      -141,75        
903,7600      0,44976       -146,36       2,421E-1      -142,39        
907,7500      0,48988       -149,99       2,158E-1      -141,08        
911,7400      0,52426       -153,71       1,946E-1      -138,55        
915,7300      0,55304       -157,40       1,796E-1      -134,61        
919,7200      0,57683       -160,94       1,708E-1      -129,69        
923,7100      0,5967        -164,32       1,673E-1      -124,60        
927,7000      0,61325       -167,58       1,699E-1      -119,79        
931,6900      0,62652       -170,78       1,756E-1      -115,93        
935,6800      0,63649       -173,92       1,842E-1      -112,98        
939,6700      0,64275       -177,01       1,961E-1      -111,06        
943,6600      0,64503       179,99        2,093E-1      -110,27        
947,6500      0,64334       177,11        2,236E-1      -110,27        
951,6400      0,63752       174,40        2,389E-1      -110,89        
955,6300      0,6278        171,95        2,546E-1      -112,26        
959,6200      0,61497       169,84        2,713E-1      -114,27        
963,6100      0,59997       168,16        2,87E-1       -116,80        
967,6000      0,58435       166,95        3,024E-1      -120,05        
971,5900      0,56921       166,22        3,169E-1      -123,90        
975,5800      0,55572       165,95        3,295E-1      -128,24        
979,5700      0,54475       166,07        3,375E-1      -133,12        
983,5600      0,53711       166,54        3,407E-1      -138,18        
987,5500      0,53373       167,27        3,388E-1      -143,44        
991,5400      0,5354        168,10        3,315E-1      -148,50        
995,5300      0,54233       168,79        3,206E-1      -153,25        
999,5200      0,55354       169,16        3,059E-1      -157,27        
1003,5100     0,56757       169,06        2,883E-1      -160,40        
1007,5000     0,58317       168,46        2,713E-1      -162,60        
1011,4900     0,59804       167,40        2,555E-1      -163,81        
1015,4800     0,61108       165,97        2,416E-1      -164,19        
1019,4700     0,62125       164,25        2,32E-1       -163,85        
1023,4600     0,62801       162,39        2,247E-1      -163,26        
1027,4500     0,63143       160,47        2,222E-1      -162,50        
1031,4400     0,63191       158,56        2,203E-1      -161,99        
1035,4300     0,63008       156,73        2,202E-1      -161,66        
1039,4200     0,62665       154,95        2,217E-1      -161,39        
1043,4100     0,62222       153,21        2,238E-1      -161,35        
1047,4000     0,61676       151,44        2,263E-1      -161,15        
1051,3900     0,60996       149,58        2,309E-1      -160,97        
1055,3800     0,60106       147,63        2,37E-1       -161,11        
1059,3700     0,58955       145,60        2,444E-1      -161,80        
1063,3600     0,57481       143,54        2,533E-1      -162,74        
1067,3500     0,55662       141,50        2,623E-1      -164,18        
1071,3400     0,53482       139,56        2,721E-1      -166,03        
1075,3300     0,50952       137,84        2,817E-1      -168,44        
1079,3200     0,48123       136,48        2,905E-1      -171,02        
1083,3100     0,45046       135,61        2,976E-1      -173,96        
1087,3000     0,41871       135,44        3,032E-1      -177,16        
1091,2900     0,38694       136,18        3,08E-1       179,48         
1095,2800     0,35679       138,07        3,108E-1      175,95         
1099,2700     0,33102       141,29        3,108E-1      172,50         
1103,2600     0,31211       145,81        3,08E-1       169,01         
1107,2500     0,30187       151,25        3,038E-1      165,83         
