!    26/06/2026   14:25:35 
! Ref Plane: 0.000 mm
# MHZ S MA R  50
!
10.0000       0.73983       179.42        2.783E-1      -11.28        5.228E-5      -42.43        0.91013       -20.15         
13.9900       0.73902       178.46        2.737E-1      -13.94        1.203E-5      159.02        0.91323       -19.71         
17.9800       0.73777       177.58        2.687E-1      -16.44        2.999E-5      174.75        0.91609       -19.28         
21.9700       0.73612       176.76        2.647E-1      -18.63        2.231E-5      127.72        0.91893       -18.88         
25.9600       0.73421       175.97        2.611E-1      -20.98        3.355E-5      75.91         0.92206       -18.51         
29.9500       0.73219       175.21        2.577E-1      -23.02        5.076E-5      39.95         0.92476       -18.18         
33.9400       0.72999       174.48        2.548E-1      -25.29        1.697E-5      -127.62       0.92799       -17.86         
37.9300       0.72766       173.73        2.533E-1      -27.44        2.197E-5      -97.80        0.93028       -17.56         
41.9200       0.72487       173.01        2.512E-1      -29.75        2.355E-5      -119.32       0.93243       -17.27         
45.9100       0.72189       172.30        2.492E-1      -31.85        6.352E-5      -70.84        0.93442       -17.00         
49.9000       0.7198        171.60        2.459E-1      -34.01        7.379E-5      -20.52        0.93619       -16.78         
53.8900       0.71634       170.89        2.453E-1      -36.48        4.588E-5      51.41         0.93772       -16.55         
57.8800       0.71163       170.17        2.463E-1      -38.71        2.115E-5      68.98         0.93905       -16.30         
61.8700       0.70766       169.55        2.452E-1      -41.08        4.965E-5      -60.83        0.94002       -16.14         
65.8600       0.70367       168.81        2.441E-1      -43.73        3.181E-5      56.40         0.94066       -15.96         
69.8500       0.6993        168.14        2.434E-1      -45.63        2.364E-6      -59.22        0.94083       -15.81         
73.8400       0.69444       167.57        2.429E-1      -48.27        1.639E-5      63.93         0.94082       -15.71         
77.8300       0.6902        166.82        2.427E-1      -50.44        3.754E-5      -135.61       0.94048       -15.60         
81.8200       0.68522       166.20        2.413E-1      -52.91        1.533E-5      -95.60        0.93984       -15.54         
85.8100       0.6799        165.59        2.418E-1      -55.65        3.582E-5      37.36         0.93899       -15.53         
89.8000       0.6742        164.97        2.408E-1      -58.03        5.603E-5      -169.45       0.93786       -15.54         
93.7900       0.66976       164.26        2.372E-1      -60.33        3.397E-5      106.63        0.93668       -15.62         
97.7800       0.66381       163.67        2.361E-1      -62.62        3.056E-5      -38.51        0.93488       -15.66         
101.7700      0.65767       163.13        2.381E-1      -64.75        4.428E-5      -5.71         0.93285       -15.75         
105.7600      0.65074       162.61        2.392E-1      -66.55        5.99E-5       -106.34       0.93089       -15.87         
109.7500      0.64429       162.01        2.379E-1      -69.46        2.238E-5      -152.11       0.9288        -16.01         
113.7400      0.63783       161.45        2.365E-1      -72.26        2.437E-5      -67.92        0.92683       -16.15         
117.7300      0.63132       160.91        2.361E-1      -74.92        5.642E-5      85.81         0.92481       -16.31         
121.7200      0.62473       160.40        2.353E-1      -77.31        4.912E-5      -91.59        0.92292       -16.47         
125.7100      0.61801       159.90        2.342E-1      -79.78        3.274E-5      -163.27       0.9212        -16.64         
129.7000      0.61115       159.43        2.329E-1      -82.17        5.159E-5      -65.97        0.91955       -16.80         
133.6900      0.60442       158.99        2.314E-1      -84.77        3.549E-5      71.60         0.91821       -16.96         
137.6800      0.59757       158.59        2.298E-1      -87.22        4.29E-5       -152.78       0.91714       -17.12         
141.6700      0.59054       158.21        2.284E-1      -89.75        4.013E-5      149.80        0.91646       -17.26         
145.6600      0.58352       157.84        2.265E-1      -92.33        2.284E-5      -137.64       0.91602       -17.38         
149.6500      0.57667       157.51        2.253E-1      -94.77        2.744E-5      139.55        0.91592       -17.50         
153.6400      0.56975       157.21        2.233E-1      -97.05        1.799E-5      -81.39        0.91611       -17.59         
157.6300      0.56288       156.93        2.209E-1      -99.29        1.082E-4      171.61        0.91673       -17.66         
161.6200      0.55615       156.69        2.193E-1      -101.71       1.126E-4      79.35         0.9176        -17.71         
165.6100      0.54947       156.45        2.178E-1      -104.11       3.298E-5      167.36        0.91885       -17.75         
169.6000      0.54297       156.26        2.168E-1      -106.61       1.112E-4      -170.29       0.92034       -17.76         
173.5900      0.53655       156.09        2.142E-1      -108.81       2.494E-5      124.24        0.92197       -17.76         
177.5800      0.53032       155.94        2.129E-1      -111.26       7.522E-5      -169.36       0.92387       -17.75         
181.5700      0.52421       155.82        2.114E-1      -113.57       5.732E-5      -156.11       0.92587       -17.71         
185.5600      0.51834       155.71        2.096E-1      -116.03       6.773E-5      158.10        0.92803       -17.67         
189.5500      0.51255       155.65        2.085E-1      -118.24       1.923E-5      157.03        0.93039       -17.60         
193.5400      0.50704       155.61        2.069E-1      -120.47       6.567E-5      -71.46        0.93257       -17.55         
197.5300      0.50172       155.59        2.058E-1      -122.90       6.693E-5      137.12        0.93475       -17.48         
201.5200      0.49654       155.60        2.04E-1       -125.18       3.705E-5      127.13        0.937         -17.42         
205.5100      0.49159       155.64        2.023E-1      -127.51       3.396E-5      -19.61        0.93907       -17.36         
209.5000      0.48685       155.71        2.008E-1      -129.61       5.486E-5      57.11         0.94103       -17.29         
213.4900      0.48227       155.80        1.996E-1      -131.94       5.661E-5      127.22        0.94284       -17.24         
217.4800      0.47793       155.91        1.986E-1      -134.25       1.515E-5      101.46        0.94431       -17.21         
221.4700      0.47378       156.05        1.97E-1       -136.60       1.682E-5      -151.38       0.94565       -17.18         
225.4600      0.46989       156.20        1.955E-1      -138.75       3.529E-5      -163.26       0.94664       -17.17         
229.4500      0.46618       156.37        1.941E-1      -140.95       7.377E-5      -126.36       0.94755       -17.18         
233.4400      0.4628        156.58        1.935E-1      -143.14       1.583E-5      -143.08       0.94797       -17.18         
237.4300      0.45965       156.79        1.919E-1      -145.68       2.786E-5      44.64         0.94809       -17.22         
241.4200      0.4567        157.01        1.91E-1       -147.61       9.532E-6      13.90         0.94791       -17.26         
245.4100      0.45405       157.23        1.894E-1      -149.97       2.107E-5      89.38         0.9476        -17.32         
249.4000      0.45161       157.47        1.877E-1      -152.13       2.415E-5      -34.94        0.94692       -17.39         
253.3900      0.44932       157.73        1.867E-1      -154.17       3.621E-5      39.16         0.94628       -17.47         
257.3800      0.44718       157.99        1.852E-1      -156.25       5.152E-5      179.71        0.94548       -17.56         
261.3700      0.44514       158.25        1.837E-1      -158.50       2.58E-5       140.78        0.94479       -17.66         
265.3600      0.44304       158.53        1.819E-1      -160.69       5.349E-5      83.19         0.94445       -17.76         
269.3500      0.44098       158.81        1.806E-1      -162.69       4.969E-5      138.24        0.94459       -17.91         
273.3400      0.43873       159.18        1.79E-1       -164.63       2.859E-5      2.71          0.94459       -18.13         
277.3300      0.43667       159.69        1.773E-1      -166.51       1.511E-5      -148.58       0.94332       -18.44         
281.3200      0.43629       160.37        1.768E-1      -168.27       2.835E-5      -89.06        0.93981       -18.71         
285.3100      0.43889       160.91        1.774E-1      -170.48       3.077E-6      122.90        0.93548       -18.88         
289.3000      0.44165       161.01        1.762E-1      -173.15       4.921E-5      -76.83        0.93154       -18.96         
293.2900      0.44206       160.99        1.743E-1      -175.57       6.312E-5      113.52        0.92836       -18.98         
297.2800      0.4413        161.07        1.723E-1      -177.74       3.291E-5      125.17        0.9258        -18.96         
301.2700      0.44043       161.24        1.711E-1      179.69        1.644E-5      18.65         0.92385       -18.91         
305.2600      0.43972       161.46        1.695E-1      177.33        7.037E-5      -158.61       0.92241       -18.83         
309.2500      0.4392        161.70        1.678E-1      175.28        3.372E-5      -34.37        0.92115       -18.72         
313.2400      0.43885       161.92        1.657E-1      173.17        6.461E-5      -47.23        0.92042       -18.57         
317.2300      0.4386        162.15        1.643E-1      171.11        4.923E-5      -22.82        0.92006       -18.39         
321.2200      0.43839       162.37        1.629E-1      168.85        6.861E-5      -5.04         0.92006       -18.18         
325.2100      0.43824       162.59        1.607E-1      166.80        6.648E-5      117.39        0.92023       -17.95         
329.2000      0.43819       162.79        1.592E-1      164.99        2.123E-5      -90.00        0.92091       -17.68         
333.1900      0.43824       162.99        1.577E-1      162.81        3.612E-5      -177.53       0.92179       -17.40         
337.1800      0.43823       163.19        1.569E-1      160.64        1.328E-5      -120.52       0.92289       -17.09         
341.1700      0.4383        163.37        1.557E-1      158.66        2.474E-5      97.58         0.92413       -16.77         
345.1600      0.43837       163.55        1.541E-1      156.81        2.444E-5      -102.63       0.92562       -16.45         
349.1500      0.43846       163.70        1.528E-1      154.56        5.593E-5      -139.36       0.92735       -16.12         
353.1400      0.43863       163.84        1.519E-1      152.57        5.325E-5      155.13        0.92919       -15.81         
357.1300      0.43884       163.96        1.511E-1      150.64        3.199E-5      43.77         0.93117       -15.49         
361.1200      0.43894       164.07        1.498E-1      148.71        1.952E-5      153.26        0.93308       -15.21         
365.1100      0.43918       164.16        1.488E-1      146.75        4.671E-5      -152.32       0.93522       -14.94         
369.1000      0.43933       164.23        1.473E-1      145.00        2.587E-5      132.63        0.93727       -14.69         
373.0900      0.43946       164.29        1.471E-1      142.94        2.188E-5      -174.27       0.93933       -14.49         
377.0800      0.43965       164.34        1.465E-1      141.19        4.768E-5      119.04        0.94145       -14.32         
381.0700      0.43976       164.37        1.455E-1      139.39        6.013E-5      152.62        0.94312       -14.18         
385.0600      0.43978       164.39        1.444E-1      137.42        7.067E-5      120.82        0.94435       -14.09         
389.0500      0.43977       164.40        1.437E-1      135.49        2.938E-5      170.56        0.94536       -14.05         
393.0400      0.43969       164.39        1.433E-1      133.59        3.441E-5      -0.81         0.94607       -14.06         
397.0300      0.43964       164.38        1.423E-1      131.84        8.391E-5      -144.24       0.94635       -14.12         
401.0200      0.43965       164.39        1.416E-1      130.08        4.476E-5      174.46        0.94609       -14.22         
405.0100      0.43983       164.42        1.407E-1      128.17        3.933E-5      106.69        0.94567       -14.38         
409.0000      0.44048       164.44        1.402E-1      126.42        2.936E-5      -12.72        0.94516       -14.58         
412.9900      0.44158       164.42        1.397E-1      124.88        1.402E-5      -135.14       0.94463       -14.85         
416.9800      0.44295       164.28        1.395E-1      123.24        1.346E-5      -22.57        0.94407       -15.18         
420.9700      0.44401       164.04        1.393E-1      121.14        6.085E-5      -154.99       0.94297       -15.60         
424.9600      0.44436       163.76        1.39E-1       119.36        3.261E-5      -107.58       0.94142       -16.08         
428.9500      0.44416       163.47        1.39E-1       117.39        2.606E-5      -109.27       0.93926       -16.62         
432.9400      0.44355       163.22        1.383E-1      115.34        8.778E-6      119.13        0.93677       -17.18         
436.9300      0.4428        163.02        1.381E-1      113.50        4.56E-5       -63.83        0.9338        -17.76         
440.9200      0.44204       162.82        1.374E-1      111.17        6.093E-5      75.30         0.93066       -18.36         
444.9100      0.44134       162.64        1.371E-1      109.20        5.107E-5      -107.43       0.92752       -18.95         
448.9000      0.44067       162.48        1.362E-1      106.99        5.39E-5       -105.47       0.92436       -19.53         
452.8900      0.43999       162.32        1.36E-1       105.03        9.836E-5      23.27         0.92138       -20.09         
456.8800      0.43935       162.17        1.35E-1       102.71        1.885E-5      -114.31       0.91877       -20.62         
460.8700      0.43864       162.02        1.347E-1      100.51        7.521E-5      112.97        0.91634       -21.11         
464.8600      0.43804       161.89        1.345E-1      98.35         6.106E-5      -69.04        0.91421       -21.57         
468.8500      0.43731       161.77        1.335E-1      96.21         8.947E-5      -65.28        0.91256       -21.96         
472.8400      0.4366        161.66        1.329E-1      93.84         1.342E-5      178.32        0.91132       -22.29         
476.8300      0.4359        161.56        1.324E-1      91.74         1.065E-4      44.44         0.91067       -22.56         
480.8200      0.43522       161.45        1.317E-1      89.53         3.484E-5      28.60         0.91029       -22.75         
484.8100      0.43455       161.36        1.31E-1       87.42         3.00E-5       -128.59       0.9103        -22.87         
488.8000      0.43387       161.29        1.302E-1      85.15         5.062E-5      -92.42        0.91084       -22.92         
492.7900      0.43323       161.21        1.299E-1      83.05         2.386E-5      -69.21        0.91172       -22.89         
496.7800      0.43261       161.14        1.29E-1       80.69         2.515E-5      178.56        0.91296       -22.77         
500.7700      0.43203       161.08        1.279E-1      78.78         2.739E-5      40.28         0.91458       -22.58         
504.7600      0.43138       161.04        1.271E-1      76.70         3.212E-5      118.96        0.91639       -22.32         
508.7500      0.43075       161.00        1.264E-1      74.40         2.547E-5      -58.25        0.91851       -21.99         
512.7400      0.4302        160.96        1.251E-1      72.28         1.206E-4      10.81         0.92072       -21.59         
516.7300      0.42965       160.92        1.246E-1      70.28         2.961E-5      66.54         0.92326       -21.15         
520.7200      0.42919       160.89        1.231E-1      68.34         1.255E-5      108.84        0.92581       -20.66         
524.7100      0.42868       160.86        1.226E-1      66.28         3.676E-5      144.43        0.92845       -20.13         
528.7000      0.42826       160.84        1.218E-1      64.27         2.201E-5      119.21        0.93104       -19.56         
532.6900      0.42784       160.84        1.212E-1      62.02         3.41E-5       58.57         0.93345       -18.97         
536.6800      0.42751       160.82        1.202E-1      60.20         2.889E-5      103.29        0.93584       -18.37         
540.6700      0.42727       160.82        1.193E-1      58.31         4.619E-5      179.96        0.93782       -17.76         
544.6600      0.42706       160.84        1.186E-1      56.33         5.407E-5      29.56         0.93959       -17.15         
548.6500      0.42691       160.85        1.172E-1      54.37         4.451E-5      54.93         0.94115       -16.55         
552.6400      0.42682       160.88        1.164E-1      52.92         3.551E-5      27.11         0.94209       -15.98         
556.6300      0.42674       160.92        1.15E-1       51.07         2.529E-5      -35.72        0.94293       -15.43         
560.6200      0.42695       160.94        1.144E-1      49.31         3.363E-5      23.29         0.94333       -14.90         
564.6100      0.42726       160.98        1.134E-1      47.28         2.709E-5      -82.00        0.94349       -14.42         
568.6000      0.42768       161.02        1.12E-1       45.85         6.245E-5      89.50         0.9434        -13.98         
572.5900      0.4282        161.04        1.114E-1      43.89         3.571E-5      -28.22        0.94313       -13.61         
576.5800      0.42868       161.05        1.105E-1      42.06         1.759E-5      -104.67       0.94262       -13.32         
580.5700      0.42925       161.05        1.103E-1      39.94         4.51E-5       -11.91        0.94179       -13.11         
584.5600      0.42968       161.04        1.09E-1       38.22         5.218E-5      65.76         0.94044       -13.01         
588.5500      0.43009       161.05        1.077E-1      36.05         5.554E-5      88.02         0.93859       -13.00         
592.5400      0.4306        161.07        1.074E-1      34.43         3.801E-5      -28.50        0.93618       -13.09         
596.5300      0.43113       161.12        1.07E-1       32.48         3.658E-5      -118.85       0.93304       -13.27         
600.5200      0.43171       161.17        1.064E-1      30.38         3.154E-5      10.43         0.92932       -13.53         
604.5100      0.43237       161.23        1.052E-1      28.47         3.129E-5      109.34        0.92528       -13.88         
608.5000      0.43312       161.29        1.048E-1      26.53         5.734E-6      157.70        0.92077       -14.31         
612.4900      0.43401       161.36        1.04E-1       24.48         9.675E-6      154.61        0.9161        -14.81         
616.4800      0.435         161.42        1.035E-1      22.83         6.895E-5      -57.36        0.91135       -15.39         
620.4700      0.43597       161.50        1.036E-1      20.81         1.823E-5      6.63          0.90672       -16.02         
624.4600      0.43705       161.58        1.027E-1      19.04         4.045E-5      -95.49        0.9022        -16.71         
