!    26/06/2026   13:26:03 
! Ref Plane: 0,000 mm
# MHZ S MA R  50
!
10,0000       0,73271       179,33        2,179E-1      -8,32          
13,9900       0,73351       178,35        2,194E-1      -10,34         
17,9800       0,73332       177,46        2,183E-1      -12,65         
21,9700       0,73239       176,62        2,176E-1      -14,64         
25,9600       0,73115       175,83        2,158E-1      -16,80         
29,9500       0,72991       175,07        2,135E-1      -18,75         
33,9400       0,72856       174,33        2,117E-1      -20,79         
37,9300       0,72697       173,59        2,105E-1      -23,01         
41,9200       0,72489       172,86        2,102E-1      -25,23         
45,9100       0,72251       172,15        2,093E-1      -27,30         
49,9000       0,72003       171,45        2,108E-1      -29,64         
53,8900       0,71711       170,74        2,106E-1      -31,87         
57,8800       0,71332       169,99        2,112E-1      -33,93         
61,8700       0,71059       169,34        2,094E-1      -36,08         
65,8600       0,70725       168,63        2,096E-1      -38,46         
69,8500       0,70352       167,96        2,094E-1      -40,86         
73,8400       0,69974       167,29        2,103E-1      -43,04         
77,8300       0,6957        166,62        2,102E-1      -45,27         
81,8200       0,69143       165,96        2,096E-1      -47,93         
85,8100       0,68689       165,30        2,108E-1      -50,02         
89,8000       0,68207       164,66        2,105E-1      -52,57         
93,7900       0,67711       164,00        2,097E-1      -54,71         
97,7800       0,67191       163,38        2,093E-1      -57,12         
101,7700      0,66631       162,79        2,108E-1      -59,14         
105,7600      0,66019       162,21        2,113E-1      -61,09         
109,7500      0,65481       161,57        2,102E-1      -64,17         
113,7400      0,64877       160,99        2,094E-1      -66,78         
117,7300      0,64253       160,43        2,097E-1      -69,24         
121,7200      0,63624       159,89        2,097E-1      -71,50         
125,7100      0,62978       159,36        2,09E-1       -73,75         
129,7000      0,62316       158,87        2,084E-1      -76,08         
133,6900      0,61638       158,40        2,077E-1      -78,47         
137,6800      0,60949       157,95        2,074E-1      -80,98         
141,6700      0,60263       157,52        2,068E-1      -83,17         
145,6600      0,59567       157,12        2,058E-1      -85,74         
149,6500      0,58884       156,74        2,053E-1      -88,23         
153,6400      0,58185       156,39        2,045E-1      -90,65         
157,6300      0,57491       156,08        2,033E-1      -92,88         
161,6200      0,56807       155,78        2,016E-1      -95,39         
165,6100      0,56133       155,52        2,002E-1      -97,89         
169,6000      0,55472       155,28        2,00E-1       -100,34        
173,5900      0,54804       155,07        1,984E-1      -102,73        
177,5800      0,54158       154,89        1,975E-1      -104,79        
181,5700      0,53527       154,71        1,957E-1      -107,18        
185,5600      0,52917       154,57        1,948E-1      -109,69        
189,5500      0,52326       154,48        1,935E-1      -111,99        
193,5400      0,51741       154,40        1,928E-1      -114,33        
197,5300      0,51175       154,33        1,915E-1      -116,67        
201,5200      0,50628       154,31        1,903E-1      -119,00        
205,5100      0,50103       154,31        1,891E-1      -121,32        
209,5000      0,49592       154,36        1,883E-1      -123,53        
213,4900      0,4909        154,43        1,871E-1      -125,77        
217,4800      0,48618       154,52        1,861E-1      -128,20        
221,4700      0,48166       154,63        1,851E-1      -130,50        
225,4600      0,47732       154,75        1,841E-1      -132,59        
229,4500      0,47318       154,92        1,823E-1      -134,75        
233,4400      0,46932       155,10        1,822E-1      -137,05        
237,4300      0,46571       155,30        1,81E-1       -139,57        
241,4200      0,46235       155,51        1,806E-1      -141,58        
245,4100      0,45926       155,74        1,787E-1      -143,88        
249,4000      0,45641       155,98        1,777E-1      -146,01        
253,3900      0,45372       156,24        1,771E-1      -148,21        
257,3800      0,45128       156,51        1,758E-1      -150,22        
261,3700      0,44898       156,77        1,742E-1      -152,58        
265,3600      0,44681       157,04        1,728E-1      -154,67        
269,3500      0,44484       157,32        1,717E-1      -156,67        
273,3400      0,44291       157,62        1,707E-1      -158,75        
277,3300      0,44098       157,98        1,693E-1      -160,68        
281,3200      0,43964       158,41        1,685E-1      -162,56        
285,3100      0,43959       158,84        1,682E-1      -164,61        
289,3000      0,44005       159,10        1,67E-1       -167,08        
293,2900      0,43991       159,29        1,658E-1      -169,38        
297,2800      0,43932       159,49        1,644E-1      -171,64        
301,2700      0,4386        159,70        1,63E-1       -174,02        
305,2600      0,43799       159,93        1,616E-1      -176,43        
309,2500      0,43753       160,15        1,603E-1      -178,47        
313,2400      0,43714       160,37        1,587E-1      179,43         
317,2300      0,43679       160,59        1,57E-1       177,45         
321,2200      0,43656       160,79        1,56E-1       175,15         
325,2100      0,43635       160,99        1,541E-1      172,90         
329,2000      0,43619       161,18        1,527E-1      171,26         
333,1900      0,43616       161,36        1,514E-1      168,90         
337,1800      0,43614       161,55        1,506E-1      166,85         
341,1700      0,43611       161,73        1,496E-1      164,87         
345,1600      0,43615       161,89        1,48E-1       162,97         
349,1500      0,43622       162,04        1,466E-1      160,77         
353,1400      0,43636       162,16        1,455E-1      158,76         
357,1300      0,43654       162,29        1,453E-1      156,77         
361,1200      0,43664       162,39        1,44E-1       154,78         
365,1100      0,43688       162,49        1,433E-1      152,98         
369,1000      0,43705       162,56        1,42E-1       151,23         
373,0900      0,43727       162,62        1,414E-1      149,15         
377,0800      0,43747       162,67        1,407E-1      147,42         
381,0700      0,43763       162,71        1,398E-1      145,53         
385,0600      0,43781       162,72        1,391E-1      143,74         
389,0500      0,43791       162,72        1,381E-1      141,87         
393,0400      0,43798       162,70        1,381E-1      139,80         
397,0300      0,43804       162,68        1,373E-1      138,05         
401,0200      0,43814       162,65        1,366E-1      136,35         
405,0100      0,43822       162,62        1,356E-1      134,27         
409,0000      0,4385        162,59        1,347E-1      132,71         
412,9900      0,43889       162,54        1,345E-1      131,17         
416,9800      0,43936       162,43        1,341E-1      129,53         
420,9700      0,43979       162,27        1,339E-1      127,72         
424,9600      0,43988       162,08        1,34E-1       125,79         
428,9500      0,43969       161,89        1,338E-1      123,93         
432,9400      0,43933       161,70        1,334E-1      121,93         
436,9300      0,43877       161,52        1,333E-1      120,06         
440,9200      0,43822       161,34        1,323E-1      117,98         
444,9100      0,43765       161,16        1,323E-1      115,97         
448,9000      0,43709       161,00        1,316E-1      113,82         
452,8900      0,43644       160,83        1,314E-1      111,85         
456,8800      0,43583       160,66        1,306E-1      109,74         
460,8700      0,4352        160,50        1,303E-1      107,62         
464,8600      0,43464       160,35        1,299E-1      105,38         
468,8500      0,43395       160,21        1,291E-1      103,28         
472,8400      0,43332       160,07        1,287E-1      100,90         
476,8300      0,43264       159,95        1,279E-1      98,96          
480,8200      0,43204       159,82        1,278E-1      96,48          
484,8100      0,43147       159,72        1,271E-1      94,51          
488,8000      0,43086       159,62        1,265E-1      92,35          
492,7900      0,43036       159,53        1,258E-1      90,15          
496,7800      0,4299        159,45        1,254E-1      87,86          
500,7700      0,42942       159,39        1,247E-1      85,93          
504,7600      0,42897       159,34        1,24E-1       83,83          
508,7500      0,42849       159,29        1,23E-1       81,53          
512,7400      0,4281        159,26        1,221E-1      79,42          
516,7300      0,42776       159,23        1,217E-1      77,40          
520,7200      0,42743       159,20        1,205E-1      75,66          
524,7100      0,42711       159,19        1,195E-1      73,32          
528,7000      0,42681       159,18        1,191E-1      71,42          
532,6900      0,42656       159,19        1,186E-1      69,31          
536,6800      0,42642       159,21        1,176E-1      67,51          
540,6700      0,42629       159,23        1,166E-1      65,63          
544,6600      0,42614       159,28        1,164E-1      63,55          
548,6500      0,42602       159,33        1,15E-1       61,69          
552,6400      0,42592       159,39        1,14E-1       60,13          
556,6300      0,42577       159,45        1,131E-1      58,32          
560,6200      0,42579       159,52        1,122E-1      56,70          
564,6100      0,42578       159,60        1,116E-1      54,85          
568,6000      0,4258        159,69        1,103E-1      53,15          
572,5900      0,42584       159,78        1,096E-1      51,36          
576,5800      0,42589       159,85        1,087E-1      49,59          
580,5700      0,42598       159,93        1,082E-1      47,49          
584,5600      0,42606       159,98        1,077E-1      46,01          
588,5500      0,42602       160,07        1,059E-1      43,78          
592,5400      0,42614       160,15        1,056E-1      42,17          
596,5300      0,42621       160,24        1,051E-1      40,25          
600,5200      0,42632       160,34        1,048E-1      38,42          
604,5100      0,42651       160,43        1,042E-1      36,22          
608,5000      0,42677       160,51        1,035E-1      34,38          
612,4900      0,42715       160,59        1,029E-1      32,35          
616,4800      0,42756       160,66        1,022E-1      30,94          
620,4700      0,42793       160,73        1,026E-1      28,71          
624,4600      0,42845       160,81        1,017E-1      27,00          
628,4500      0,42895       160,85        1,014E-1      25,10          
632,4400      0,42954       160,90        1,006E-1      22,96          
636,4300      0,43012       160,93        1,011E-1      21,07          
640,4200      0,43067       160,95        1,006E-1      19,16          
644,4100      0,43135       160,97        1,002E-1      17,59          
648,4000      0,43202       160,96        9,94E-2       16,09          
652,3900      0,43277       160,94        9,945E-2      13,52          
656,3800      0,43354       160,92        9,918E-2      11,68          
660,3700      0,43432       160,88        9,867E-2      10,02          
664,3600      0,43512       160,84        9,819E-2      8,14           
668,3500      0,43594       160,78        9,751E-2      6,27           
672,3400      0,43677       160,72        9,745E-2      4,62           
676,3300      0,43765       160,65        9,74E-2       2,84           
680,3200      0,43844       160,57        9,645E-2      0,99           
684,3100      0,43934       160,49        9,568E-2      -0,88          
688,3000      0,44022       160,39        9,553E-2      -2,95          
692,2900      0,44105       160,30        9,508E-2      -4,79          
696,2800      0,4419        160,20        9,456E-2      -6,59          
700,2700      0,44269       160,09        9,374E-2      -7,83          
704,2600      0,44349       159,99        9,339E-2      -9,94          
708,2500      0,44423       159,88        9,278E-2      -11,80         
712,2400      0,44493       159,78        9,214E-2      -13,62         
716,2300      0,44565       159,69        9,133E-2      -15,15         
720,2200      0,44632       159,59        9,032E-2      -17,18         
724,2100      0,44699       159,49        9,11E-2       -18,78         
728,2000      0,44753       159,38        9,05E-2       -20,56         
732,1900      0,44812       159,28        8,968E-2      -22,58         
736,1800      0,4486        159,19        8,941E-2      -24,25         
740,1700      0,44902       159,09        8,884E-2      -26,26         
744,1600      0,44948       159,01        8,836E-2      -28,16         
748,1500      0,44983       158,93        8,837E-2      -29,94         
752,1400      0,45024       158,85        8,752E-2      -31,73         
756,1300      0,4506        158,79        8,669E-2      -33,96         
760,1200      0,45082       158,74        8,684E-2      -35,78         
764,1100      0,45098       158,69        8,656E-2      -37,92         
768,1000      0,45115       158,64        8,647E-2      -39,68         
772,0900      0,45131       158,59        8,604E-2      -41,66         
776,0800      0,4514        158,55        8,541E-2      -43,82         
780,0700      0,45149       158,52        8,566E-2      -45,92         
784,0600      0,45142       158,49        8,543E-2      -47,55         
788,0500      0,45136       158,48        8,516E-2      -49,64         
792,0400      0,45131       158,46        8,422E-2      -51,29         
796,0300      0,45124       158,44        8,409E-2      -53,43         
800,0200      0,45112       158,44        8,425E-2      -55,11         
804,0100      0,45096       158,43        8,388E-2      -56,86         
808,0000      0,45078       158,43        8,281E-2      -58,98         
811,9900      0,45074       158,43        8,279E-2      -60,75         
815,9800      0,45062       158,42        8,205E-2      -62,55         
819,9700      0,45052       158,42        8,187E-2      -64,09         
823,9600      0,45032       158,42        8,152E-2      -65,80         
827,9500      0,45023       158,42        8,124E-2      -67,76         
831,9400      0,45004       158,41        8,077E-2      -69,59         
835,9300      0,44982       158,41        8,007E-2      -71,22         
839,9200      0,4496        158,42        7,951E-2      -72,65         
843,9100      0,44932       158,42        7,903E-2      -74,76         
847,9000      0,44911       158,42        7,849E-2      -75,92         
851,8900      0,44886       158,40        7,763E-2      -77,75         
855,8800      0,44873       158,37        7,768E-2      -79,43         
859,8700      0,44866       158,32        7,676E-2      -80,91         
863,8600      0,44866       158,27        7,611E-2      -82,65         
867,8500      0,4486        158,20        7,617E-2      -84,24         
871,8400      0,44855       158,13        7,536E-2      -85,95         
875,8300      0,44863       158,03        7,467E-2      -87,66         
879,8200      0,44874       157,94        7,463E-2      -89,38         
883,8100      0,44898       157,85        7,447E-2      -91,05         
887,8000      0,44908       157,75        7,422E-2      -92,60         
891,7900      0,44928       157,65        7,353E-2      -94,45         
895,7800      0,44946       157,55        7,29E-2       -96,45         
899,7700      0,44962       157,43        7,352E-2      -98,11         
903,7600      0,44979       157,31        7,427E-2      -100,18        
907,7500      0,45          157,19        7,442E-2      -101,32        
911,7400      0,4503        157,06        7,397E-2      -102,91        
915,7300      0,4506        156,91        7,41E-2       -104,61        
919,7200      0,4509        156,75        7,424E-2      -106,14        
923,7100      0,45137       156,59        7,412E-2      -107,89        
927,7000      0,45178       156,43        7,471E-2      -109,54        
931,6900      0,45225       156,28        7,467E-2      -111,30        
935,6800      0,45278       156,12        7,46E-2       -113,15        
939,6700      0,4533        155,96        7,523E-2      -114,83        
943,6600      0,45398       155,80        7,498E-2      -116,82        
947,6500      0,45471       155,66        7,499E-2      -118,83        
951,6400      0,45543       155,52        7,56E-2       -120,57        
955,6300      0,45621       155,36        7,561E-2      -122,19        
959,6200      0,45705       155,22        7,586E-2      -124,33        
963,6100      0,45792       155,09        7,568E-2      -126,60        
967,6000      0,45896       154,96        7,543E-2      -128,75        
971,5900      0,45994       154,83        7,567E-2      -130,53        
975,5800      0,46096       154,70        7,527E-2      -132,67        
979,5700      0,46212       154,58        7,482E-2      -134,64        
983,5600      0,46325       154,48        7,486E-2      -136,84        
987,5500      0,46444       154,37        7,453E-2      -138,61        
991,5400      0,46562       154,26        7,424E-2      -140,95        
995,5300      0,46692       154,16        7,398E-2      -143,12        
999,5200      0,46798       154,05        7,299E-2      -145,53        
1003,5100     0,4691        153,93        7,279E-2      -147,62        
1007,5000     0,47027       153,85        7,201E-2      -149,25        
1011,4900     0,47142       153,75        7,133E-2      -151,25        
1015,4800     0,47253       153,67        7,061E-2      -153,18        
1019,4700     0,4738        153,58        7,039E-2      -155,49        
1023,4600     0,47479       153,49        6,951E-2      -156,83        
1027,4500     0,47577       153,41        6,961E-2      -159,02        
1031,4400     0,47675       153,34        6,889E-2      -160,81        
1035,4300     0,47762       153,28        6,756E-2      -162,84        
1039,4200     0,47836       153,23        6,773E-2      -164,72        
1043,4100     0,47915       153,18        6,812E-2      -166,50        
1047,4000     0,4797        153,13        6,70E-2       -168,22        
1051,3900     0,48026       153,07        6,634E-2      -169,15        
1055,3800     0,48083       153,03        6,646E-2      -170,44        
1059,3700     0,48133       152,98        6,606E-2      -172,64        
1063,3600     0,48182       152,93        6,606E-2      -173,62        
1067,3500     0,48214       152,89        6,535E-2      -175,80        
1071,3400     0,48245       152,85        6,548E-2      -176,67        
1075,3300     0,48274       152,82        6,555E-2      -178,31        
1079,3200     0,48304       152,77        6,534E-2      -179,94        
1083,3100     0,48323       152,72        6,471E-2      178,45         
1087,3000     0,48349       152,66        6,413E-2      176,89         
1091,2900     0,4837        152,63        6,426E-2      175,57         
1095,2800     0,48369       152,57        6,46E-2       174,03         
1099,2700     0,48373       152,52        6,503E-2      172,77         
1103,2600     0,48383       152,46        6,464E-2      171,19         
1107,2500     0,48383       152,40        6,498E-2      169,79         
