!    26/06/2026   14:27:59 
! Ref Plane: 0.000 mm
# MHZ S MA R  50
!
10.0000       0.36457       -179.68       6.838E-1      -7.93         5.228E-5      -42.43        0.91013       -20.15         
13.9900       0.35935       -179.76       6.811E-1      -10.36        1.203E-5      159.02        0.91323       -19.71         
17.9800       0.35484       -179.31       6.754E-1      -12.62        2.999E-5      174.75        0.91609       -19.28         
21.9700       0.35204       -178.54       6.709E-1      -14.76        2.231E-5      127.72        0.91893       -18.88         
25.9600       0.35088       -177.63       6.657E-1      -16.97        3.355E-5      75.91         0.92206       -18.51         
29.9500       0.35143       -176.67       6.613E-1      -18.94        5.076E-5      39.95         0.92476       -18.18         
33.9400       0.35342       -175.72       6.566E-1      -20.94        1.697E-5      -127.62       0.92799       -17.86         
37.9300       0.3566        -174.89       6.541E-1      -22.87        2.197E-5      -97.80        0.93028       -17.56         
41.9200       0.3607        -174.14       6.507E-1      -24.96        2.355E-5      -119.32       0.93243       -17.27         
45.9100       0.36559       -173.51       6.483E-1      -26.99        6.352E-5      -70.84        0.93442       -17.00         
49.9000       0.37179       -173.05       6.39E-1       -28.84        7.379E-5      -20.52        0.93619       -16.78         
53.8900       0.37783       -172.73       6.416E-1      -31.10        4.588E-5      51.41         0.93772       -16.55         
57.8800       0.38386       -172.51       6.444E-1      -33.13        2.115E-5      68.98         0.93905       -16.30         
61.8700       0.39063       -172.37       6.433E-1      -35.25        4.965E-5      -60.83        0.94002       -16.14         
65.8600       0.39763       -172.49       6.406E-1      -37.44        3.181E-5      56.40         0.94066       -15.96         
69.8500       0.40457       -172.68       6.399E-1      -38.98        2.364E-6      -59.22        0.94083       -15.81         
73.8400       0.41139       -172.91       6.402E-1      -41.40        1.639E-5      63.93         0.94082       -15.71         
77.8300       0.41845       -173.43       6.389E-1      -43.29        3.754E-5      -135.61       0.94048       -15.60         
81.8200       0.42507       -173.94       6.382E-1      -45.42        1.533E-5      -95.60        0.93984       -15.54         
85.8100       0.43129       -174.54       6.394E-1      -47.76        3.582E-5      37.36         0.93899       -15.53         
89.8000       0.4371        -175.27       6.392E-1      -49.71        5.603E-5      -169.45       0.93786       -15.54         
93.7900       0.44338       -176.18       6.329E-1      -51.72        3.397E-5      106.63        0.93668       -15.62         
97.7800       0.44832       -177.05       6.33E-1       -53.73        3.056E-5      -38.51        0.93488       -15.66         
101.7700      0.45266       -177.94       6.374E-1      -55.51        4.428E-5      -5.71         0.93285       -15.75         
105.7600      0.456         -178.87       6.433E-1      -57.02        5.99E-5       -106.34       0.93089       -15.87         
109.7500      0.45932       -179.96       6.437E-1      -59.63        2.238E-5      -152.11       0.9288        -16.01         
113.7400      0.46218       178.93        6.435E-1      -62.14        2.437E-5      -67.92        0.92683       -16.15         
117.7300      0.46449       177.80        6.445E-1      -64.33        5.642E-5      85.81         0.92481       -16.31         
121.7200      0.46615       176.67        6.462E-1      -66.44        4.912E-5      -91.59        0.92292       -16.47         
125.7100      0.46727       175.49        6.471E-1      -68.60        3.274E-5      -163.27       0.9212        -16.64         
129.7000      0.46777       174.31        6.476E-1      -70.76        5.159E-5      -65.97        0.91955       -16.80         
133.6900      0.46793       173.11        6.472E-1      -72.90        3.549E-5      71.60         0.91821       -16.96         
137.6800      0.46741       171.92        6.486E-1      -75.25        4.29E-5       -152.78       0.91714       -17.12         
141.6700      0.46624       170.74        6.487E-1      -77.48        4.013E-5      149.80        0.91646       -17.26         
145.6600      0.46455       169.53        6.498E-1      -79.70        2.284E-5      -137.64       0.91602       -17.38         
149.6500      0.46257       168.32        6.504E-1      -81.87        2.744E-5      139.55        0.91592       -17.50         
153.6400      0.46004       167.10        6.516E-1      -84.01        1.799E-5      -81.39        0.91611       -17.59         
157.6300      0.4571        165.89        6.516E-1      -86.08        1.082E-4      171.61        0.91673       -17.66         
161.6200      0.45371       164.68        6.531E-1      -88.31        1.126E-4      79.35         0.9176        -17.71         
165.6100      0.44979       163.44        6.538E-1      -90.51        3.298E-5      167.36        0.91885       -17.75         
169.6000      0.44546       162.20        6.56E-1       -92.77        1.112E-4      -170.29       0.92034       -17.76         
173.5900      0.44058       160.94        6.563E-1      -95.01        2.494E-5      124.24        0.92197       -17.76         
177.5800      0.43515       159.68        6.583E-1      -97.22        7.522E-5      -169.36       0.92387       -17.75         
181.5700      0.42917       158.39        6.601E-1      -99.53        5.732E-5      -156.11       0.92587       -17.71         
185.5600      0.42262       157.09        6.615E-1      -101.82       6.773E-5      158.10        0.92803       -17.67         
189.5500      0.41541       155.79        6.644E-1      -104.07       1.923E-5      157.03        0.93039       -17.60         
193.5400      0.40762       154.49        6.663E-1      -106.35       6.567E-5      -71.46        0.93257       -17.55         
197.5300      0.39917       153.19        6.684E-1      -108.73       6.693E-5      137.12        0.93475       -17.48         
201.5200      0.39003       151.91        6.693E-1      -111.07       3.705E-5      127.13        0.937         -17.42         
205.5100      0.38018       150.67        6.713E-1      -113.41       3.396E-5      -19.61        0.93907       -17.36         
209.5000      0.36956       149.48        6.734E-1      -115.80       5.486E-5      57.11         0.94103       -17.29         
213.4900      0.35821       148.33        6.756E-1      -118.21       5.661E-5      127.22        0.94284       -17.24         
217.4800      0.34617       147.26        6.772E-1      -120.66       1.515E-5      101.46        0.94431       -17.21         
221.4700      0.33347       146.30        6.79E-1       -123.08       1.682E-5      -151.38       0.94565       -17.18         
225.4600      0.32019       145.45        6.805E-1      -125.55       3.529E-5      -163.26       0.94664       -17.17         
229.4500      0.3064        144.77        6.819E-1      -128.02       7.377E-5      -126.36       0.94755       -17.18         
233.4400      0.29228       144.28        6.834E-1      -130.55       1.583E-5      -143.08       0.94797       -17.18         
237.4300      0.27785       143.99        6.84E-1       -133.18       2.786E-5      44.64         0.94809       -17.22         
241.4200      0.2634        143.97        6.852E-1      -135.67       9.532E-6      13.90         0.94791       -17.26         
245.4100      0.24895       144.27        6.854E-1      -138.31       2.107E-5      89.38         0.9476        -17.32         
249.4000      0.23476       144.91        6.854E-1      -140.92       2.415E-5      -34.94        0.94692       -17.39         
253.3900      0.22089       145.94        6.852E-1      -143.47       3.621E-5      39.16         0.94628       -17.47         
257.3800      0.20765       147.42        6.847E-1      -146.05       5.152E-5      179.71        0.94548       -17.56         
261.3700      0.19497       149.36        6.842E-1      -148.67       2.58E-5       140.78        0.94479       -17.66         
265.3600      0.18283       151.80        6.815E-1      -151.27       5.349E-5      83.19         0.94445       -17.76         
269.3500      0.1712        154.85        6.793E-1      -153.80       4.969E-5      138.24        0.94459       -17.91         
273.3400      0.15994       158.77        6.773E-1      -156.31       2.859E-5      2.71          0.94459       -18.13         
277.3300      0.14963       164.25        6.748E-1      -158.72       1.511E-5      -148.58       0.94332       -18.44         
281.3200      0.14374       171.82        6.74E-1       -161.23       2.835E-5      -89.06        0.93981       -18.71         
285.3100      0.14659       179.76        6.746E-1      -163.81       3.077E-6      122.90        0.93548       -18.88         
289.3000      0.15481       -174.64       6.735E-1      -166.72       4.921E-5      -76.83        0.93154       -18.96         
293.2900      0.16258       -170.82       6.699E-1      -169.49       6.312E-5      113.52        0.92836       -18.98         
297.2800      0.16935       -167.52       6.653E-1      -172.24       3.291E-5      125.17        0.9258        -18.96         
301.2700      0.17615       -164.37       6.60E-1       -174.90       1.644E-5      18.65         0.92385       -18.91         
305.2600      0.18362       -161.40       6.559E-1      -177.53       7.037E-5      -158.61       0.92241       -18.83         
309.2500      0.1919        -158.66       6.52E-1       179.86        3.372E-5      -34.37        0.92115       -18.72         
313.2400      0.20108       -156.20       6.47E-1       177.26        6.461E-5      -47.23        0.92042       -18.57         
317.2300      0.21113       -154.01       6.416E-1      174.73        4.923E-5      -22.82        0.92006       -18.39         
321.2200      0.22211       -152.13       6.369E-1      172.20        6.861E-5      -5.04         0.92006       -18.18         
325.2100      0.23386       -150.53       6.312E-1      169.57        6.648E-5      117.39        0.92023       -17.95         
329.2000      0.24632       -149.24       6.255E-1      167.07        2.123E-5      -90.00        0.92091       -17.68         
333.1900      0.2595        -148.24       6.197E-1      164.48        3.612E-5      -177.53       0.92179       -17.40         
337.1800      0.27326       -147.50       6.142E-1      162.05        1.328E-5      -120.52       0.92289       -17.09         
341.1700      0.28745       -147.05       6.082E-1      159.56        2.474E-5      97.58         0.92413       -16.77         
345.1600      0.30205       -146.85       6.018E-1      157.05        2.444E-5      -102.63       0.92562       -16.45         
349.1500      0.31679       -146.90       5.949E-1      154.63        5.593E-5      -139.36       0.92735       -16.12         
353.1400      0.33167       -147.17       5.896E-1      152.24        5.325E-5      155.13        0.92919       -15.81         
357.1300      0.34647       -147.65       5.827E-1      149.90        3.199E-5      43.77         0.93117       -15.49         
361.1200      0.36112       -148.28       5.763E-1      147.60        1.952E-5      153.26        0.93308       -15.21         
365.1100      0.37545       -149.09       5.694E-1      145.34        4.671E-5      -152.32       0.93522       -14.94         
369.1000      0.38933       -150.02       5.632E-1      143.14        2.587E-5      132.63        0.93727       -14.69         
373.0900      0.40266       -151.07       5.574E-1      141.01        2.188E-5      -174.27       0.93933       -14.49         
377.0800      0.41534       -152.21       5.507E-1      138.81        4.768E-5      119.04        0.94145       -14.32         
381.0700      0.42732       -153.42       5.456E-1      136.65        6.013E-5      152.62        0.94312       -14.18         
385.0600      0.43851       -154.69       5.393E-1      134.59        7.067E-5      120.82        0.94435       -14.09         
389.0500      0.44894       -156.00       5.342E-1      132.48        2.938E-5      170.56        0.94536       -14.05         
393.0400      0.45876       -157.33       5.288E-1      130.39        3.441E-5      -0.81         0.94607       -14.06         
397.0300      0.46791       -158.66       5.234E-1      128.38        8.391E-5      -144.24       0.94635       -14.12         
401.0200      0.4766        -160.01       5.181E-1      126.36        4.476E-5      174.46        0.94609       -14.22         
405.0100      0.4849        -161.37       5.137E-1      124.41        3.933E-5      106.69        0.94567       -14.38         
409.0000      0.49285       -162.81       5.091E-1      122.50        2.936E-5      -12.72        0.94516       -14.58         
412.9900      0.50027       -164.33       5.052E-1      120.70        1.402E-5      -135.14       0.94463       -14.85         
416.9800      0.50671       -165.94       5.027E-1      118.77        1.346E-5      -22.57        0.94407       -15.18         
420.9700      0.51163       -167.61       5.003E-1      116.76        6.085E-5      -154.99       0.94297       -15.60         
424.9600      0.51469       -169.28       4.985E-1      114.79        3.261E-5      -107.58       0.94142       -16.08         
428.9500      0.5162        -170.90       4.96E-1       112.68        2.606E-5      -109.27       0.93926       -16.62         
432.9400      0.51649       -172.43       4.931E-1      110.50        8.778E-6      119.13        0.93677       -17.18         
436.9300      0.51585       -173.82       4.899E-1      108.37        4.56E-5       -63.83        0.9338        -17.76         
440.9200      0.51462       -175.12       4.871E-1      106.21        6.093E-5      75.30         0.93066       -18.36         
444.9100      0.51289       -176.30       4.84E-1       104.03        5.107E-5      -107.43       0.92752       -18.95         
448.9000      0.51086       -177.37       4.794E-1      101.69        5.39E-5       -105.47       0.92436       -19.53         
452.8900      0.50867       -178.35       4.758E-1      99.40         9.836E-5      23.27         0.92138       -20.09         
456.8800      0.50658       -179.19       4.713E-1      97.15         1.885E-5      -114.31       0.91877       -20.62         
460.8700      0.50473       -179.95       4.663E-1      94.98         7.521E-5      112.97        0.91634       -21.11         
464.8600      0.50345       179.39        4.616E-1      92.75         6.106E-5      -69.04        0.91421       -21.57         
468.8500      0.50274       178.76        4.554E-1      90.58         8.947E-5      -65.28        0.91256       -21.96         
472.8400      0.50296       178.16        4.50E-1       88.53         1.342E-5      178.32        0.91132       -22.29         
476.8300      0.50388       177.54        4.443E-1      86.66         1.065E-4      44.44         0.91067       -22.56         
480.8200      0.50555       176.86        4.387E-1      84.77         3.484E-5      28.60         0.91029       -22.75         
484.8100      0.50768       176.10        4.335E-1      82.99         3.00E-5       -128.59       0.9103        -22.87         
488.8000      0.51004       175.21        4.29E-1       81.34         5.062E-5      -92.42        0.91084       -22.92         
492.7900      0.51227       174.19        4.254E-1      79.74         2.386E-5      -69.21        0.91172       -22.89         
496.7800      0.514         173.06        4.217E-1      78.17         2.515E-5      178.56        0.91296       -22.77         
500.7700      0.51493       171.83        4.192E-1      76.55         2.739E-5      40.28         0.91458       -22.58         
504.7600      0.51487       170.51        4.17E-1       74.99         3.212E-5      118.96        0.91639       -22.32         
508.7500      0.51366       169.10        4.157E-1      73.32         2.547E-5      -58.25        0.91851       -21.99         
512.7400      0.51141       167.75        4.133E-1      71.63         1.206E-4      10.81         0.92072       -21.59         
516.7300      0.50759       166.24        4.116E-1      69.91         2.961E-5      66.54         0.92326       -21.15         
520.7200      0.50245       164.69        4.109E-1      68.24         1.255E-5      108.84        0.92581       -20.66         
524.7100      0.49576       163.14        4.106E-1      66.60         3.676E-5      144.43        0.92845       -20.13         
528.7000      0.48768       161.61        4.098E-1      64.86         2.201E-5      119.21        0.93104       -19.56         
532.6900      0.47812       160.12        4.09E-1       63.10         3.41E-5       58.57         0.93345       -18.97         
536.6800      0.46713       158.66        4.09E-1       61.41         2.889E-5      103.29        0.93584       -18.37         
540.6700      0.45486       157.31        4.094E-1      59.84         4.619E-5      179.96        0.93782       -17.76         
544.6600      0.44127       156.10        4.102E-1      58.12         5.407E-5      29.56         0.93959       -17.15         
548.6500      0.42663       155.03        4.108E-1      56.52         4.451E-5      54.93         0.94115       -16.55         
552.6400      0.41113       154.16        4.124E-1      54.89         3.551E-5      27.11         0.94209       -15.98         
556.6300      0.39501       153.51        4.148E-1      53.18         2.529E-5      -35.72        0.94293       -15.43         
560.6200      0.37869       153.12        4.183E-1      51.41         3.363E-5      23.29         0.94333       -14.90         
564.6100      0.36228       153.02        4.221E-1      49.55         2.709E-5      -82.00        0.94349       -14.42         
568.6000      0.3461        153.23        4.262E-1      47.61         6.245E-5      89.50         0.9434        -13.98         
572.5900      0.33035       153.79        4.31E-1       45.29         3.571E-5      -28.22        0.94313       -13.61         
576.5800      0.31518       154.71        4.354E-1      42.88         1.759E-5      -104.67       0.94262       -13.32         
580.5700      0.30095       156.03        4.398E-1      40.30         4.51E-5       -11.91        0.94179       -13.11         
584.5600      0.28794       157.79        4.433E-1      37.64         5.218E-5      65.76         0.94044       -13.01         
588.5500      0.27641       160.00        4.459E-1      34.73         5.554E-5      88.02         0.93859       -13.00         
592.5400      0.26682       162.67        4.484E-1      31.81         3.801E-5      -28.50        0.93618       -13.09         
596.5300      0.25942       165.73        4.501E-1      28.89         3.658E-5      -118.85       0.93304       -13.27         
600.5200      0.25459       169.11        4.502E-1      25.86         3.154E-5      10.43         0.92932       -13.53         
604.5100      0.25249       172.71        4.496E-1      22.71         3.129E-5      109.34        0.92528       -13.88         
608.5000      0.25333       176.34        4.481E-1      19.59         5.734E-6      157.70        0.92077       -14.31         
612.4900      0.25698       179.88        4.458E-1      16.51         9.675E-6      154.61        0.9161        -14.81         
616.4800      0.26334       -176.85       4.427E-1      13.45         6.895E-5      -57.36        0.91135       -15.39         
620.4700      0.2721        -173.90       4.392E-1      10.36         1.823E-5      6.63          0.90672       -16.02         
624.4600      0.28306       -171.39       4.339E-1      7.27          4.045E-5      -95.49        0.9022        -16.71         
