!    26/06/2026   14:26:38 
! Ref Plane: 0.000 mm
# MHZ S MA R  50
!
10.0000       0.32465       -179.62       7.303E-1      -7.71         5.228E-5      -42.43        0.91013       -20.15         
13.9900       0.31847       -179.48       7.278E-1      -10.14        1.203E-5      159.02        0.91323       -19.71         
17.9800       0.31332       -178.65       7.225E-1      -12.44        2.999E-5      174.75        0.91609       -19.28         
21.9700       0.31018       -177.41       7.18E-1       -14.54        2.231E-5      127.72        0.91893       -18.88         
25.9600       0.3092        -175.99       7.125E-1      -16.82        3.355E-5      75.91         0.92206       -18.51         
29.9500       0.31039       -174.52       7.073E-1      -18.82        5.076E-5      39.95         0.92476       -18.18         
33.9400       0.31333       -173.11       7.035E-1      -20.83        1.697E-5      -127.62       0.92799       -17.86         
37.9300       0.31777       -171.86       7.002E-1      -22.81        2.197E-5      -97.80        0.93028       -17.56         
41.9200       0.32332       -170.76       6.966E-1      -24.88        2.355E-5      -119.32       0.93243       -17.27         
45.9100       0.32985       -169.85       6.937E-1      -26.89        6.352E-5      -70.84        0.93442       -17.00         
49.9000       0.33766       -169.17       6.84E-1       -28.81        7.379E-5      -20.52        0.93619       -16.78         
53.8900       0.34552       -168.69       6.857E-1      -31.05        4.588E-5      51.41         0.93772       -16.55         
57.8800       0.35337       -168.37       6.889E-1      -33.05        2.115E-5      68.98         0.93905       -16.30         
61.8700       0.36196       -168.17       6.868E-1      -35.21        4.965E-5      -60.83        0.94002       -16.14         
65.8600       0.37066       -168.26       6.839E-1      -37.43        3.181E-5      56.40         0.94066       -15.96         
69.8500       0.37933       -168.47       6.824E-1      -38.98        2.364E-6      -59.22        0.94083       -15.81         
73.8400       0.38776       -168.73       6.823E-1      -41.33        1.639E-5      63.93         0.94082       -15.71         
77.8300       0.39637       -169.31       6.80E-1       -43.23        3.754E-5      -135.61       0.94048       -15.60         
81.8200       0.40448       -169.90       6.791E-1      -45.31        1.533E-5      -95.60        0.93984       -15.54         
85.8100       0.41205       -170.58       6.803E-1      -47.62        3.582E-5      37.36         0.93899       -15.53         
89.8000       0.41917       -171.41       6.79E-1       -49.59        5.603E-5      -169.45       0.93786       -15.54         
93.7900       0.4266        -172.42       6.722E-1      -51.55        3.397E-5      106.63        0.93668       -15.62         
97.7800       0.4326        -173.40       6.714E-1      -53.54        3.056E-5      -38.51        0.93488       -15.66         
101.7700      0.43802       -174.40       6.758E-1      -55.27        4.428E-5      -5.71         0.93285       -15.75         
105.7600      0.44233       -175.44       6.817E-1      -56.73        5.99E-5       -106.34       0.93089       -15.87         
109.7500      0.4465        -176.62       6.817E-1      -59.30        2.238E-5      -152.11       0.9288        -16.01         
113.7400      0.4502        -177.85       6.812E-1      -61.79        2.437E-5      -67.92        0.92683       -16.15         
117.7300      0.45328       -179.08       6.822E-1      -63.95        5.642E-5      85.81         0.92481       -16.31         
121.7200      0.45564       179.68        6.835E-1      -66.01        4.912E-5      -91.59        0.92292       -16.47         
125.7100      0.45744       178.42        6.838E-1      -68.14        3.274E-5      -163.27       0.9212        -16.64         
129.7000      0.45855       177.14        6.84E-1       -70.24        5.159E-5      -65.97        0.91955       -16.80         
133.6900      0.45923       175.86        6.83E-1       -72.35        3.549E-5      71.60         0.91821       -16.96         
137.6800      0.45929       174.57        6.844E-1      -74.62        4.29E-5       -152.78       0.91714       -17.12         
141.6700      0.45875       173.29        6.841E-1      -76.83        4.013E-5      149.80        0.91646       -17.26         
145.6600      0.45755       172.00        6.85E-1       -79.00        2.284E-5      -137.64       0.91602       -17.38         
149.6500      0.45604       170.70        6.855E-1      -81.07        2.744E-5      139.55        0.91592       -17.50         
153.6400      0.45406       169.39        6.861E-1      -83.17        1.799E-5      -81.39        0.91611       -17.59         
157.6300      0.45159       168.08        6.868E-1      -85.21        1.082E-4      171.61        0.91673       -17.66         
161.6200      0.44871       166.78        6.881E-1      -87.39        1.126E-4      79.35         0.9176        -17.71         
165.6100      0.44525       165.45        6.889E-1      -89.51        3.298E-5      167.36        0.91885       -17.75         
169.6000      0.44138       164.11        6.903E-1      -91.74        1.112E-4      -170.29       0.92034       -17.76         
173.5900      0.43693       162.74        6.908E-1      -93.93        2.494E-5      124.24        0.92197       -17.76         
177.5800      0.43199       161.37        6.928E-1      -96.09        7.522E-5      -169.36       0.92387       -17.75         
181.5700      0.42642       159.97        6.944E-1      -98.35        5.732E-5      -156.11       0.92587       -17.71         
185.5600      0.42029       158.54        6.959E-1      -100.60       6.773E-5      158.10        0.92803       -17.67         
189.5500      0.41351       157.11        6.988E-1      -102.79       1.923E-5      157.03        0.93039       -17.60         
193.5400      0.40605       155.67        7.006E-1      -105.04       6.567E-5      -71.46        0.93257       -17.55         
197.5300      0.39795       154.23        7.028E-1      -107.33       6.693E-5      137.12        0.93475       -17.48         
201.5200      0.38911       152.79        7.039E-1      -109.59       3.705E-5      127.13        0.937         -17.42         
205.5100      0.37958       151.37        7.061E-1      -111.91       3.396E-5      -19.61        0.93907       -17.36         
209.5000      0.36923       149.99        7.082E-1      -114.20       5.486E-5      57.11         0.94103       -17.29         
213.4900      0.35811       148.64        7.105E-1      -116.56       5.661E-5      127.22        0.94284       -17.24         
217.4800      0.34624       147.35        7.125E-1      -118.95       1.515E-5      101.46        0.94431       -17.21         
221.4700      0.33367       146.15        7.141E-1      -121.38       1.682E-5      -151.38       0.94565       -17.18         
225.4600      0.32042       145.05        7.164E-1      -123.76       3.529E-5      -163.26       0.94664       -17.17         
229.4500      0.30656       144.08        7.178E-1      -126.19       7.377E-5      -126.36       0.94755       -17.18         
233.4400      0.29229       143.28        7.197E-1      -128.65       1.583E-5      -143.08       0.94797       -17.18         
237.4300      0.27764       142.66        7.196E-1      -131.22       2.786E-5      44.64         0.94809       -17.22         
241.4200      0.2628        142.26        7.218E-1      -133.70       9.532E-6      13.90         0.94791       -17.26         
245.4100      0.24787       142.17        7.221E-1      -136.31       2.107E-5      89.38         0.9476        -17.32         
249.4000      0.233         142.39        7.223E-1      -138.83       2.415E-5      -34.94        0.94692       -17.39         
253.3900      0.21833       142.97        7.223E-1      -141.33       3.621E-5      39.16         0.94628       -17.47         
257.3800      0.204         143.96        7.222E-1      -143.92       5.152E-5      179.71        0.94548       -17.56         
261.3700      0.19007       145.40        7.217E-1      -146.50       2.58E-5       140.78        0.94479       -17.66         
265.3600      0.1765        147.34        7.20E-1       -149.04       5.349E-5      83.19         0.94445       -17.76         
269.3500      0.16306       149.91        7.175E-1      -151.55       4.969E-5      138.24        0.94459       -17.91         
273.3400      0.14956       153.39        7.156E-1      -154.02       2.859E-5      2.71          0.94459       -18.13         
277.3300      0.13632       158.71        7.132E-1      -156.46       1.511E-5      -148.58       0.94332       -18.44         
281.3200      0.12698       166.92        7.127E-1      -158.94       2.835E-5      -89.06        0.93981       -18.71         
285.3100      0.12692       176.43        7.136E-1      -161.52       3.077E-6      122.90        0.93548       -18.88         
289.3000      0.13366       -176.48       7.119E-1      -164.38       4.921E-5      -76.83        0.93154       -18.96         
293.2900      0.14075       -171.61       7.084E-1      -167.12       6.312E-5      113.52        0.92836       -18.98         
297.2800      0.14708       -167.48       7.04E-1       -169.83       3.291E-5      125.17        0.9258        -18.96         
301.2700      0.15357       -163.61       6.986E-1      -172.47       1.644E-5      18.65         0.92385       -18.91         
305.2600      0.16071       -159.99       6.943E-1      -175.13       7.037E-5      -158.61       0.92241       -18.83         
309.2500      0.16891       -156.66       6.898E-1      -177.74       3.372E-5      -34.37        0.92115       -18.72         
313.2400      0.1781        -153.68       6.85E-1       179.70        6.461E-5      -47.23        0.92042       -18.57         
317.2300      0.18826       -151.05       6.798E-1      177.18        4.923E-5      -22.82        0.92006       -18.39         
321.2200      0.19947       -148.78       6.75E-1       174.63        6.861E-5      -5.04         0.92006       -18.18         
325.2100      0.21162       -146.88       6.685E-1      172.02        6.648E-5      117.39        0.92023       -17.95         
329.2000      0.22458       -145.35       6.632E-1      169.54        2.123E-5      -90.00        0.92091       -17.68         
333.1900      0.23837       -144.16       6.566E-1      166.97        3.612E-5      -177.53       0.92179       -17.40         
337.1800      0.25286       -143.29       6.51E-1       164.52        1.328E-5      -120.52       0.92289       -17.09         
341.1700      0.26785       -142.76       6.448E-1      162.02        2.474E-5      97.58         0.92413       -16.77         
345.1600      0.28329       -142.52       6.378E-1      159.55        2.444E-5      -102.63       0.92562       -16.45         
349.1500      0.29895       -142.56       6.306E-1      157.08        5.593E-5      -139.36       0.92735       -16.12         
353.1400      0.3148        -142.85       6.244E-1      154.73        5.325E-5      155.13        0.92919       -15.81         
357.1300      0.3306        -143.37       6.17E-1       152.37        3.199E-5      43.77         0.93117       -15.49         
361.1200      0.34621       -144.07       6.102E-1      150.11        1.952E-5      153.26        0.93308       -15.21         
365.1100      0.36159       -144.96       6.028E-1      147.82        4.671E-5      -152.32       0.93522       -14.94         
369.1000      0.37647       -145.97       5.956E-1      145.63        2.587E-5      132.63        0.93727       -14.69         
373.0900      0.39083       -147.12       5.893E-1      143.48        2.188E-5      -174.27       0.93933       -14.49         
377.0800      0.40449       -148.37       5.825E-1      141.31        4.768E-5      119.04        0.94145       -14.32         
381.0700      0.41742       -149.68       5.762E-1      139.17        6.013E-5      152.62        0.94312       -14.18         
385.0600      0.42957       -151.06       5.692E-1      137.13        7.067E-5      120.82        0.94435       -14.09         
389.0500      0.4409        -152.47       5.636E-1      135.03        2.938E-5      170.56        0.94536       -14.05         
393.0400      0.45163       -153.91       5.577E-1      132.95        3.441E-5      -0.81         0.94607       -14.06         
397.0300      0.46161       -155.35       5.516E-1      130.94        8.391E-5      -144.24       0.94635       -14.12         
401.0200      0.47119       -156.81       5.459E-1      128.98        4.476E-5      174.46        0.94609       -14.22         
405.0100      0.48034       -158.28       5.404E-1      127.03        3.933E-5      106.69        0.94567       -14.38         
409.0000      0.48919       -159.84       5.355E-1      125.20        2.936E-5      -12.72        0.94516       -14.58         
412.9900      0.49743       -161.49       5.315E-1      123.39        1.402E-5      -135.14       0.94463       -14.85         
416.9800      0.50461       -163.24       5.287E-1      121.47        1.346E-5      -22.57        0.94407       -15.18         
420.9700      0.5102        -165.06       5.256E-1      119.55        6.085E-5      -154.99       0.94297       -15.60         
424.9600      0.51389       -166.87       5.239E-1      117.57        3.261E-5      -107.58       0.94142       -16.08         
428.9500      0.51591       -168.65       5.21E-1       115.52        2.606E-5      -109.27       0.93926       -16.62         
432.9400      0.51668       -170.34       5.179E-1      113.39        8.778E-6      119.13        0.93677       -17.18         
436.9300      0.51641       -171.92       5.15E-1       111.34        4.56E-5       -63.83        0.9338        -17.76         
440.9200      0.51534       -173.39       5.119E-1      109.18        6.093E-5      75.30         0.93066       -18.36         
444.9100      0.51364       -174.76       5.087E-1      107.04        5.107E-5      -107.43       0.92752       -18.95         
448.9000      0.51137       -176.02       5.049E-1      104.77        5.39E-5       -105.47       0.92436       -19.53         
452.8900      0.50874       -177.20       5.011E-1      102.40        9.836E-5      23.27         0.92138       -20.09         
456.8800      0.50587       -178.24       4.965E-1      100.17        1.885E-5      -114.31       0.91877       -20.62         
460.8700      0.50296       -179.18       4.923E-1      97.85         7.521E-5      112.97        0.91634       -21.11         
464.8600      0.50027       180.00        4.87E-1       95.53         6.106E-5      -69.04        0.91421       -21.57         
468.8500      0.49793       179.26        4.805E-1      93.26         8.947E-5      -65.28        0.91256       -21.96         
472.8400      0.49634       178.60        4.743E-1      91.02         1.342E-5      178.32        0.91132       -22.29         
476.8300      0.4956        177.99        4.67E-1       89.02         1.065E-4      44.44         0.91067       -22.56         
480.8200      0.49581       177.37        4.599E-1      86.98         3.484E-5      28.60         0.91029       -22.75         
484.8100      0.49694       176.70        4.528E-1      85.11         3.00E-5       -128.59       0.9103        -22.87         
488.8000      0.49876       175.92        4.456E-1      83.35         5.062E-5      -92.42        0.91084       -22.92         
492.7900      0.50099       175.02        4.394E-1      81.86         2.386E-5      -69.21        0.91172       -22.89         
496.7800      0.50322       173.98        4.335E-1      80.30         2.515E-5      178.56        0.91296       -22.77         
500.7700      0.50494       172.79        4.286E-1      78.84         2.739E-5      40.28         0.91458       -22.58         
504.7600      0.50584       171.46        4.246E-1      77.50         3.212E-5      118.96        0.91639       -22.32         
508.7500      0.50567       170.02        4.212E-1      76.10         2.547E-5      -58.25        0.91851       -21.99         
512.7400      0.50413       168.49        4.184E-1      74.62         1.206E-4      10.81         0.92072       -21.59         
516.7300      0.50109       166.88        4.158E-1      73.23         2.961E-5      66.54         0.92326       -21.15         
520.7200      0.49656       165.20        4.137E-1      71.82         1.255E-5      108.84        0.92581       -20.66         
524.7100      0.49031       163.52        4.126E-1      70.43         3.676E-5      144.43        0.92845       -20.13         
528.7000      0.48242       161.85        4.119E-1      68.97         2.201E-5      119.21        0.93104       -19.56         
532.6900      0.47282       160.21        4.111E-1      67.63         3.41E-5       58.57         0.93345       -18.97         
536.6800      0.46172       158.63        4.104E-1      66.24         2.889E-5      103.29        0.93584       -18.37         
540.6700      0.44918       157.16        4.117E-1      64.87         4.619E-5      179.96        0.93782       -17.76         
544.6600      0.43532       155.86        4.133E-1      63.55         5.407E-5      29.56         0.93959       -17.15         
548.6500      0.42044       154.73        4.155E-1      62.22         4.451E-5      54.93         0.94115       -16.55         
552.6400      0.40493       153.81        4.19E-1       60.85         3.551E-5      27.11         0.94209       -15.98         
556.6300      0.38899       153.13        4.231E-1      59.37         2.529E-5      -35.72        0.94293       -15.43         
560.6200      0.37314       152.72        4.28E-1       57.74         3.363E-5      23.29         0.94333       -14.90         
564.6100      0.35747       152.57        4.347E-1      55.88         2.709E-5      -82.00        0.94349       -14.42         
568.6000      0.34223       152.69        4.406E-1      54.01         6.245E-5      89.50         0.9434        -13.98         
572.5900      0.32739       153.07        4.473E-1      51.71         3.571E-5      -28.22        0.94313       -13.61         
576.5800      0.31306       153.74        4.529E-1      49.27         1.759E-5      -104.67       0.94262       -13.32         
580.5700      0.29937       154.73        4.585E-1      46.62         4.51E-5       -11.91        0.94179       -13.11         
584.5600      0.28643       156.06        4.636E-1      44.00         5.218E-5      65.76         0.94044       -13.01         
588.5500      0.27437       157.81        4.671E-1      41.04         5.554E-5      88.02         0.93859       -13.00         
592.5400      0.26367       159.99        4.705E-1      38.14         3.801E-5      -28.50        0.93618       -13.09         
596.5300      0.25446       162.59        4.722E-1      35.09         3.658E-5      -118.85       0.93304       -13.27         
600.5200      0.24719       165.62        4.739E-1      32.09         3.154E-5      10.43         0.92932       -13.53         
604.5100      0.24215       169.01        4.738E-1      28.92         3.129E-5      109.34        0.92528       -13.88         
608.5000      0.23971       172.63        4.727E-1      25.83         5.734E-6      157.70        0.92077       -14.31         
612.4900      0.23996       176.38        4.708E-1      22.64         9.675E-6      154.61        0.9161        -14.81         
616.4800      0.24303       -179.93       4.683E-1      19.65         6.895E-5      -57.36        0.91135       -15.39         
620.4700      0.24878       -176.45       4.653E-1      16.45         1.823E-5      6.63          0.90672       -16.02         
624.4600      0.2571        -173.30       4.602E-1      13.33         4.045E-5      -95.49        0.9022        -16.71         
