!    26/06/2026   13:43:28 
! Ref Plane: 0,000 mm
# MHZ S MA R  50
!
10,0000       0,16653       -178,16       3,803E-1      -17,03         
13,9900       0,18759       -160,54       3,661E-1      -5,49          
17,9800       0,22593       -154,30       3,952E-1      0,98           
21,9700       0,26142       -153,16       4,342E-1      2,92           
25,9600       0,29005       -153,95       4,70E-1       2,05           
29,9500       0,31287       -155,33       4,98E-1       0,34           
33,9400       0,33106       -156,92       5,209E-1      -2,17          
37,9300       0,3445        -158,03       5,344E-1      -4,66          
41,9200       0,35862       -159,39       5,50E-1       -7,07          
45,9100       0,37007       -160,67       5,618E-1      -9,70          
49,9000       0,38056       -161,87       5,686E-1      -12,70         
53,8900       0,38974       -163,00       5,783E-1      -15,50         
57,8800       0,39783       -164,08       5,892E-1      -18,01         
61,8700       0,40592       -165,05       5,931E-1      -20,51         
65,8600       0,4137        -166,15       5,963E-1      -23,16         
69,8500       0,42095       -167,18       5,981E-1      -24,91         
73,8400       0,42825       -168,20       6,012E-1      -27,71         
77,8300       0,43503       -169,28       6,034E-1      -30,11         
81,8200       0,44149       -170,34       6,057E-1      -32,74         
85,8100       0,44752       -171,48       6,093E-1      -34,89         
89,8000       0,45317       -172,63       6,121E-1      -37,48         
93,7900       0,45856       -173,88       6,126E-1      -39,51         
97,7800       0,46328       -175,09       6,146E-1      -41,70         
101,7700      0,46754       -176,30       6,195E-1      -43,70         
105,7600      0,47091       -177,56       6,246E-1      -45,39         
109,7500      0,47419       -178,93       6,251E-1      -47,94         
113,7400      0,47736       179,69        6,251E-1      -50,81         
117,7300      0,47955       178,33        6,277E-1      -53,19         
121,7200      0,48116       176,97        6,304E-1      -55,39         
125,7100      0,48222       175,60        6,319E-1      -57,59         
129,7000      0,48277       174,22        6,338E-1      -59,71         
133,6900      0,48281       172,83        6,359E-1      -61,73         
137,6800      0,4822        171,45        6,374E-1      -63,81         
141,6700      0,48115       170,08        6,394E-1      -65,91         
145,6600      0,47975       168,71        6,413E-1      -68,07         
149,6500      0,47794       167,32        6,437E-1      -70,28         
153,6400      0,47574       165,95        6,453E-1      -72,41         
157,6300      0,47308       164,59        6,47E-1       -74,55         
161,6200      0,47002       163,26        6,481E-1      -76,78         
165,6100      0,46698       161,94        6,49E-1       -78,99         
169,6000      0,46399       160,54        6,51E-1       -81,13         
173,5900      0,45986       159,14        6,519E-1      -83,33         
177,5800      0,45561       157,77        6,535E-1      -85,56         
181,5700      0,4513        156,37        6,545E-1      -87,73         
185,5600      0,44669       154,89        6,555E-1      -89,91         
189,5500      0,44167       153,38        6,572E-1      -92,03         
193,5400      0,4358        151,78        6,596E-1      -94,17         
197,5300      0,42908       150,19        6,629E-1      -96,37         
201,5200      0,42173       148,64        6,649E-1      -98,61         
205,5100      0,414         147,11        6,67E-1       -100,89        
209,5000      0,40559       145,59        6,694E-1      -103,10        
213,4900      0,39654       144,06        6,723E-1      -105,37        
217,4800      0,38689       142,56        6,743E-1      -107,71        
221,4700      0,37659       141,07        6,761E-1      -110,02        
225,4600      0,36553       139,61        6,788E-1      -112,32        
229,4500      0,35386       138,21        6,804E-1      -114,61        
233,4400      0,34164       136,89        6,833E-1      -117,01        
237,4300      0,32893       135,64        6,841E-1      -119,45        
241,4200      0,31584       134,48        6,854E-1      -121,81        
245,4100      0,30244       133,45        6,873E-1      -124,28        
249,4000      0,28872       132,54        6,886E-1      -126,70        
253,3900      0,27487       131,79        6,899E-1      -129,12        
257,3800      0,26099       131,19        6,90E-1       -131,55        
261,3700      0,24702       130,74        6,91E-1       -133,99        
265,3600      0,23287       130,44        6,91E-1       -136,48        
269,3500      0,21855       130,26        6,902E-1      -138,84        
273,3400      0,20342       130,18        6,896E-1      -141,25        
277,3300      0,18655       130,50        6,889E-1      -143,56        
281,3200      0,16822       132,02        6,899E-1      -145,94        
285,3100      0,15183       135,69        6,916E-1      -148,44        
289,3000      0,14097       140,76        6,908E-1      -151,17        
293,2900      0,13399       145,74        6,893E-1      -153,82        
297,2800      0,12839       150,55        6,865E-1      -156,44        
301,2700      0,12371       155,50        6,836E-1      -158,98        
305,2600      0,12          160,71        6,804E-1      -161,61        
309,2500      0,11744       166,27        6,778E-1      -164,14        
313,2400      0,11629       172,12        6,751E-1      -166,65        
317,2300      0,1167        178,13        6,713E-1      -169,14        
321,2200      0,11892       -175,89       6,675E-1      -171,68        
325,2100      0,12295       -170,11       6,634E-1      -174,20        
329,2000      0,12884       -164,76       6,597E-1      -176,63        
333,1900      0,13657       -159,92       6,555E-1      -179,24        
337,1800      0,14604       -155,71       6,505E-1      178,38         
341,1700      0,15712       -152,26       6,468E-1      175,86         
345,1600      0,16958       -149,50       6,413E-1      173,37         
349,1500      0,18317       -147,41       6,361E-1      170,88         
353,1400      0,19771       -145,92       6,309E-1      168,46         
357,1300      0,21297       -144,97       6,25E-1       166,06         
361,1200      0,22867       -144,47       6,195E-1      163,72         
365,1100      0,24471       -144,39       6,135E-1      161,38         
369,1000      0,26078       -144,65       6,072E-1      159,04         
373,0900      0,27677       -145,18       6,016E-1      156,75         
377,0800      0,29239       -145,96       5,955E-1      154,52         
381,0700      0,30769       -146,92       5,896E-1      152,31         
385,0600      0,32245       -148,03       5,834E-1      150,12         
389,0500      0,33657       -149,26       5,777E-1      147,93         
393,0400      0,35008       -150,57       5,716E-1      145,75         
397,0300      0,363         -151,93       5,659E-1      143,67         
401,0200      0,37557       -153,32       5,597E-1      141,60         
405,0100      0,3877        -154,78       5,541E-1      139,45         
409,0000      0,39959       -156,36       5,476E-1      137,46         
412,9900      0,41092       -158,07       5,432E-1      135,62         
416,9800      0,42106       -159,93       5,39E-1       133,59         
420,9700      0,42974       -161,86       5,353E-1      131,60         
424,9600      0,43665       -163,80       5,311E-1      129,57         
428,9500      0,44196       -165,73       5,278E-1      127,51         
432,9400      0,44603       -167,59       5,233E-1      125,41         
436,9300      0,44903       -169,35       5,19E-1       123,37         
440,9200      0,45104       -171,03       5,143E-1      121,23         
444,9100      0,45229       -172,62       5,10E-1       119,09         
448,9000      0,45277       -174,11       5,046E-1      116,94         
452,8900      0,45291       -175,51       4,996E-1      114,73         
456,8800      0,45277       -176,80       4,939E-1      112,46         
460,8700      0,45251       -177,98       4,879E-1      110,39         
464,8600      0,45243       -179,08       4,823E-1      108,25         
468,8500      0,45261       179,89        4,752E-1      106,17         
472,8400      0,45368       178,91        4,681E-1      104,06         
476,8300      0,45532       177,93        4,612E-1      102,19         
480,8200      0,45755       176,93        4,547E-1      100,39         
484,8100      0,46045       175,86        4,482E-1      98,58          
488,8000      0,46366       174,69        4,419E-1      96,92          
492,7900      0,46704       173,40        4,359E-1      95,26          
496,7800      0,4703        171,98        4,31E-1       93,72          
500,7700      0,47303       170,44        4,252E-1      92,32          
504,7600      0,47504       168,80        4,211E-1      90,78          
508,7500      0,47609       167,05        4,167E-1      89,22          
512,7400      0,4761        165,22        4,127E-1      87,80          
516,7300      0,47496       163,31        4,092E-1      86,32          
520,7200      0,47252       161,33        4,046E-1      85,01          
524,7100      0,46856       159,32        4,017E-1      83,64          
528,7000      0,4632        157,29        3,992E-1      82,32          
532,6900      0,45625       155,25        3,974E-1      81,02          
536,6800      0,44788       153,23        3,947E-1      79,94          
540,6700      0,43791       151,26        3,934E-1      78,83          
544,6600      0,42645       149,38        3,93E-1       77,75          
548,6500      0,41352       147,60        3,944E-1      76,77          
552,6400      0,39944       145,95        3,973E-1      75,80          
556,6300      0,38432       144,48        4,002E-1      74,74          
560,6200      0,36859       143,22        4,04E-1       73,54          
564,6100      0,3523        142,18        4,10E-1       72,15          
568,6000      0,33576       141,37        4,167E-1      70,64          
572,5900      0,31907       140,81        4,238E-1      68,84          
576,5800      0,30241       140,51        4,302E-1      66,82          
580,5700      0,2859        140,49        4,373E-1      64,59          
584,5600      0,2696        140,82        4,441E-1      62,19          
588,5500      0,25362       141,51        4,494E-1      59,59          
592,5400      0,2382        142,66        4,547E-1      56,92          
596,5300      0,22333       144,31        4,589E-1      54,09          
600,5200      0,20936       146,57        4,618E-1      51,16          
604,5100      0,19658       149,52        4,642E-1      48,19          
608,5000      0,18551       153,24        4,655E-1      45,14          
612,4900      0,17649       157,75        4,649E-1      42,05          
616,4800      0,17026       162,99        4,642E-1      39,02          
620,4700      0,16715       168,76        4,626E-1      35,93          
624,4600      0,16768       174,72        4,595E-1      32,88          
628,4500      0,17171       -179,51       4,559E-1      29,78          
632,4400      0,17924       -174,26       4,51E-1       26,68          
636,4300      0,1897        -169,77       4,462E-1      23,77          
640,4200      0,20267       -166,14       4,394E-1      20,73          
644,4100      0,21764       -163,38       4,328E-1      17,72          
648,4000      0,234         -161,38       4,255E-1      14,86          
652,3900      0,25145       -160,08       4,184E-1      11,98          
656,3800      0,26949       -159,36       4,096E-1      9,27           
660,3700      0,2879        -159,12       4,004E-1      6,54           
664,3600      0,30638       -159,26       3,918E-1      3,89           
668,3500      0,3247        -159,74       3,827E-1      1,26           
672,3400      0,34274       -160,48       3,728E-1      -1,15          
676,3300      0,36029       -161,44       3,631E-1      -3,53          
680,3200      0,37715       -162,57       3,528E-1      -5,82          
684,3100      0,39341       -163,85       3,431E-1      -8,09          
688,3000      0,40897       -165,23       3,332E-1      -10,24         
692,2900      0,42371       -166,71       3,228E-1      -12,28         
696,2800      0,43771       -168,26       3,126E-1      -14,22         
700,2700      0,45096       -169,86       3,021E-1      -15,97         
704,2600      0,4634        -171,52       2,921E-1      -17,59         
708,2500      0,475         -173,21       2,819E-1      -19,14         
712,2400      0,48574       -174,94       2,72E-1       -20,52         
716,2300      0,4957        -176,71       2,627E-1      -21,67         
720,2200      0,50483       -178,50       2,539E-1      -22,69         
724,2100      0,51297       179,69        2,458E-1      -23,50         
728,2000      0,52012       177,86        2,377E-1      -24,07         
732,1900      0,52623       176,00        2,302E-1      -24,45         
736,1800      0,5313        174,12        2,237E-1      -24,79         
740,1700      0,53539       172,24        2,177E-1      -24,94         
744,1600      0,53837       170,36        2,124E-1      -24,96         
748,1500      0,54019       168,48        2,081E-1      -24,63         
752,1400      0,54092       166,58        2,045E-1      -24,19         
756,1300      0,54052       164,70        2,019E-1      -23,77         
760,1200      0,53886       162,84        2,001E-1      -23,32         
764,1100      0,53593       160,98        2,001E-1      -22,78         
768,1000      0,53183       159,15        2,008E-1      -22,51         
772,0900      0,52659       157,32        2,026E-1      -21,92         
776,0800      0,52009       155,53        2,05E-1       -21,76         
780,0700      0,51237       153,80        2,085E-1      -21,60         
784,0600      0,50336       152,10        2,129E-1      -21,70         
788,0500      0,49327       150,45        2,185E-1      -22,02         
792,0400      0,48214       148,87        2,237E-1      -22,45         
796,0300      0,46997       147,37        2,296E-1      -23,25         
800,0200      0,45683       145,96        2,366E-1      -24,27         
804,0100      0,44278       144,65        2,433E-1      -25,57         
808,0000      0,42799       143,46        2,501E-1      -27,08         
811,9900      0,41264       142,42        2,576E-1      -28,76         
815,9800      0,39669       141,53        2,639E-1      -30,58         
819,9700      0,3803        140,83        2,714E-1      -32,65         
823,9600      0,36353       140,34        2,776E-1      -34,84         
827,9500      0,34676       140,10        2,833E-1      -37,31         
831,9400      0,32998       140,13        2,884E-1      -39,89         
835,9300      0,31349       140,48        2,929E-1      -42,56         
839,9200      0,29735       141,19        2,967E-1      -45,27         
843,9100      0,28191       142,28        2,995E-1      -48,10         
847,9000      0,2675        143,79        3,016E-1      -50,88         
851,8900      0,2543        145,74        3,024E-1      -53,72         
855,8800      0,24271       148,13        3,031E-1      -56,60         
859,8700      0,23289       150,95        3,028E-1      -59,39         
863,8600      0,22514       154,16        3,01E-1       -62,25         
867,8500      0,21954       157,66        2,989E-1      -65,04         
871,8400      0,21621       161,37        2,963E-1      -67,74         
875,8300      0,21535       165,13        2,926E-1      -70,34         
879,8200      0,21683       168,82        2,881E-1      -72,93         
883,8100      0,2206        172,31        2,838E-1      -75,20         
887,8000      0,22646       175,52        2,793E-1      -77,48         
891,7900      0,23426       178,33        2,744E-1      -79,58         
895,7800      0,24364       -179,30       2,687E-1      -81,44         
899,7700      0,25436       -177,38       2,641E-1      -83,06         
903,7600      0,26618       -175,94       2,592E-1      -84,64         
907,7500      0,27882       -174,96       2,563E-1      -86,01         
911,7400      0,29208       -174,40       2,522E-1      -87,14         
915,7300      0,30553       -174,20       2,494E-1      -88,26         
919,7200      0,31892       -174,33       2,467E-1      -89,25         
923,7100      0,33213       -174,74       2,45E-1       -90,15         
927,7000      0,34494       -175,38       2,453E-1      -91,20         
931,6900      0,35717       -176,22       2,449E-1      -92,07         
935,6800      0,36872       -177,23       2,454E-1      -93,14         
939,6700      0,37943       -178,34       2,467E-1      -94,14         
943,6600      0,38928       -179,53       2,485E-1      -95,22         
947,6500      0,39831       179,21        2,515E-1      -96,50         
951,6400      0,40641       177,91        2,544E-1      -97,78         
955,6300      0,41355       176,55        2,577E-1      -99,15         
959,6200      0,41978       175,21        2,608E-1      -100,80        
963,6100      0,42522       173,87        2,641E-1      -102,63        
967,6000      0,4299        172,56        2,677E-1      -104,50        
971,5900      0,43379       171,27        2,706E-1      -106,51        
975,5800      0,43692       170,02        2,739E-1      -108,69        
979,5700      0,43952       168,84        2,768E-1      -111,01        
983,5600      0,44153       167,70        2,793E-1      -113,33        
987,5500      0,44303       166,62        2,806E-1      -115,66        
991,5400      0,44401       165,59        2,815E-1      -118,28        
995,5300      0,4447        164,63        2,822E-1      -120,88        
999,5200      0,44478       163,73        2,823E-1      -123,56        
1003,5100     0,44456       162,89        2,813E-1      -126,11        
1007,5000     0,44414       162,11        2,801E-1      -128,74        
1011,4900     0,44336       161,41        2,788E-1      -131,35        
1015,4800     0,44238       160,76        2,764E-1      -133,91        
1019,4700     0,44136       160,19        2,739E-1      -136,52        
1023,4600     0,43989       159,68        2,699E-1      -139,05        
1027,4500     0,43833       159,26        2,674E-1      -141,65        
1031,4400     0,43674       158,90        2,635E-1      -143,95        
1035,4300     0,43515       158,62        2,593E-1      -146,35        
1039,4200     0,43349       158,40        2,549E-1      -148,58        
1043,4100     0,43218       158,25        2,503E-1      -150,87        
1047,4000     0,43093       158,15        2,459E-1      -152,97        
1051,3900     0,43001       158,09        2,411E-1      -154,57        
1055,3800     0,42936       158,06        2,358E-1      -156,38        
1059,3700     0,42915       158,03        2,311E-1      -158,15        
1063,3600     0,42926       157,98        2,259E-1      -159,59        
1067,3500     0,42957       157,93        2,217E-1      -161,13        
1071,3400     0,43004       157,85        2,174E-1      -162,33        
1075,3300     0,43056       157,73        2,135E-1      -163,45        
1079,3200     0,4312        157,57        2,095E-1      -164,18        
1083,3100     0,43164       157,35        2,061E-1      -165,02        
1087,3000     0,43191       157,08        2,032E-1      -165,69        
1091,2900     0,43196       156,79        2,012E-1      -166,06        
1095,2800     0,43147       156,47        2,00E-1       -166,58        
1099,2700     0,43049       156,12        1,999E-1      -166,71        
1103,2600     0,42921       155,77        1,989E-1      -167,16        
1107,2500     0,42734       155,43        1,997E-1      -167,62        
