!    26/06/2026   14:34:36 
! Ref Plane: 0.000 mm
# MHZ S MA R  50
!
10.0000       0.30579       -179.41       7.481E-1      -7.62         5.228E-5      -42.43        0.91013       -20.15         
13.9900       0.29939       -179.11       7.457E-1      -10.06        1.203E-5      159.02        0.91323       -19.71         
17.9800       0.29407       -178.05       7.409E-1      -12.36        2.999E-5      174.75        0.91609       -19.28         
21.9700       0.29095       -176.53       7.362E-1      -14.45        2.231E-5      127.72        0.91893       -18.88         
25.9600       0.29023       -174.82       7.31E-1       -16.73        3.355E-5      75.91         0.92206       -18.51         
29.9500       0.29182       -173.06       7.253E-1      -18.75        5.076E-5      39.95         0.92476       -18.18         
33.9400       0.29538       -171.40       7.214E-1      -20.77        1.697E-5      -127.62       0.92799       -17.86         
37.9300       0.30054       -169.92       7.182E-1      -22.81        2.197E-5      -97.80        0.93028       -17.56         
41.9200       0.30686       -168.64       7.146E-1      -24.87        2.355E-5      -119.32       0.93243       -17.27         
45.9100       0.31426       -167.59       7.113E-1      -26.89        6.352E-5      -70.84        0.93442       -17.00         
49.9000       0.32295       -166.82       7.011E-1      -28.83        7.379E-5      -20.52        0.93619       -16.78         
53.8900       0.33175       -166.28       7.025E-1      -31.05        4.588E-5      51.41         0.93772       -16.55         
57.8800       0.34054       -165.91       7.06E-1       -33.07        2.115E-5      68.98         0.93905       -16.30         
61.8700       0.34994       -165.71       7.039E-1      -35.20        4.965E-5      -60.83        0.94002       -16.14         
65.8600       0.35954       -165.81       7.002E-1      -37.41        3.181E-5      56.40         0.94066       -15.96         
69.8500       0.36897       -166.04       6.985E-1      -38.94        2.364E-6      -59.22        0.94083       -15.81         
73.8400       0.37822       -166.34       6.984E-1      -41.34        1.639E-5      63.93         0.94082       -15.71         
77.8300       0.38752       -166.98       6.96E-1       -43.24        3.754E-5      -135.61       0.94048       -15.60         
81.8200       0.39628       -167.62       6.947E-1      -45.28        1.533E-5      -95.60        0.93984       -15.54         
85.8100       0.40455       -168.36       6.958E-1      -47.61        3.582E-5      37.36         0.93899       -15.53         
89.8000       0.41223       -169.26       6.942E-1      -49.58        5.603E-5      -169.45       0.93786       -15.54         
93.7900       0.4202        -170.33       6.872E-1      -51.52        3.397E-5      106.63        0.93668       -15.62         
97.7800       0.42676       -171.38       6.863E-1      -53.46        3.056E-5      -38.51        0.93488       -15.66         
101.7700      0.43261       -172.43       6.902E-1      -55.22        4.428E-5      -5.71         0.93285       -15.75         
105.7600      0.43742       -173.54       6.962E-1      -56.63        5.99E-5       -106.34       0.93089       -15.87         
109.7500      0.442         -174.79       6.962E-1      -59.23        2.238E-5      -152.11       0.9288        -16.01         
113.7400      0.44607       -176.07       6.955E-1      -61.68        2.437E-5      -67.92        0.92683       -16.15         
117.7300      0.44954       -177.36       6.959E-1      -63.85        5.642E-5      85.81         0.92481       -16.31         
121.7200      0.45236       -178.64       6.967E-1      -65.89        4.912E-5      -91.59        0.92292       -16.47         
125.7100      0.45454       -179.97       6.972E-1      -67.98        3.274E-5      -163.27       0.9212        -16.64         
129.7000      0.45607       178.70        6.971E-1      -70.09        5.159E-5      -65.97        0.91955       -16.80         
133.6900      0.4572        177.37        6.964E-1      -72.17        3.549E-5      71.60         0.91821       -16.96         
137.6800      0.45763       176.05        6.969E-1      -74.40        4.29E-5       -152.78       0.91714       -17.12         
141.6700      0.45744       174.72        6.967E-1      -76.61        4.013E-5      149.80        0.91646       -17.26         
145.6600      0.45671       173.39        6.977E-1      -78.73        2.284E-5      -137.64       0.91602       -17.38         
149.6500      0.45562       172.05        6.977E-1      -80.76        2.744E-5      139.55        0.91592       -17.50         
153.6400      0.45405       170.71        6.983E-1      -82.86        1.799E-5      -81.39        0.91611       -17.59         
157.6300      0.45209       169.37        6.988E-1      -84.88        1.082E-4      171.61        0.91673       -17.66         
161.6200      0.44963       168.03        7.003E-1      -87.02        1.126E-4      79.35         0.9176        -17.71         
165.6100      0.44664       166.66        7.005E-1      -89.12        3.298E-5      167.36        0.91885       -17.75         
169.6000      0.44322       165.29        7.025E-1      -91.32        1.112E-4      -170.29       0.92034       -17.76         
173.5900      0.43923       163.89        7.028E-1      -93.48        2.494E-5      124.24        0.92197       -17.76         
177.5800      0.43477       162.48        7.047E-1      -95.61        7.522E-5      -169.36       0.92387       -17.75         
181.5700      0.42968       161.05        7.065E-1      -97.79        5.732E-5      -156.11       0.92587       -17.71         
185.5600      0.42394       159.58        7.08E-1       -100.03       6.773E-5      158.10        0.92803       -17.67         
189.5500      0.41761       158.11        7.106E-1      -102.22       1.923E-5      157.03        0.93039       -17.60         
193.5400      0.4106        156.63        7.127E-1      -104.44       6.567E-5      -71.46        0.93257       -17.55         
197.5300      0.40293       155.13        7.151E-1      -106.69       6.693E-5      137.12        0.93475       -17.48         
201.5200      0.39446       153.65        7.162E-1      -108.92       3.705E-5      127.13        0.937         -17.42         
205.5100      0.38531       152.17        7.188E-1      -111.21       3.396E-5      -19.61        0.93907       -17.36         
209.5000      0.37529       150.73        7.21E-1       -113.47       5.486E-5      57.11         0.94103       -17.29         
213.4900      0.36452       149.31        7.23E-1       -115.82       5.661E-5      127.22        0.94284       -17.24         
217.4800      0.35294       147.95        7.255E-1      -118.17       1.515E-5      101.46        0.94431       -17.21         
221.4700      0.34058       146.66        7.273E-1      -120.56       1.682E-5      -151.38       0.94565       -17.18         
225.4600      0.32748       145.46        7.298E-1      -122.95       3.529E-5      -163.26       0.94664       -17.17         
229.4500      0.3137        144.37        7.312E-1      -125.32       7.377E-5      -126.36       0.94755       -17.18         
233.4400      0.29953       143.44        7.333E-1      -127.78       1.583E-5      -143.08       0.94797       -17.18         
237.4300      0.28482       142.67        7.338E-1      -130.35       2.786E-5      44.64         0.94809       -17.22         
241.4200      0.26987       142.10        7.357E-1      -132.79       9.532E-6      13.90         0.94791       -17.26         
245.4100      0.25477       141.79        7.362E-1      -135.40       2.107E-5      89.38         0.9476        -17.32         
249.4000      0.23965       141.77        7.369E-1      -137.90       2.415E-5      -34.94        0.94692       -17.39         
253.3900      0.22454       142.08        7.373E-1      -140.41       3.621E-5      39.16         0.94628       -17.47         
257.3800      0.2097        142.76        7.368E-1      -142.94       5.152E-5      179.71        0.94548       -17.56         
261.3700      0.19513       143.84        7.365E-1      -145.53       2.58E-5       140.78        0.94479       -17.66         
265.3600      0.18072       145.39        7.35E-1       -148.07       5.349E-5      83.19         0.94445       -17.76         
269.3500      0.16632       147.49        7.333E-1      -150.59       4.969E-5      138.24        0.94459       -17.91         
273.3400      0.15158       150.46        7.317E-1      -153.03       2.859E-5      2.71          0.94459       -18.13         
277.3300      0.13663       155.23        7.294E-1      -155.47       1.511E-5      -148.58       0.94332       -18.44         
281.3200      0.1249        163.11        7.293E-1      -157.94       2.835E-5      -89.06        0.93981       -18.71         
285.3100      0.1223        172.96        7.299E-1      -160.51       3.077E-6      122.90        0.93548       -18.88         
289.3000      0.12725       -179.23       7.284E-1      -163.40       4.921E-5      -76.83        0.93154       -18.96         
293.2900      0.1332        -173.72       7.245E-1      -166.14       6.312E-5      113.52        0.92836       -18.98         
297.2800      0.13864       -169.05       7.206E-1      -168.84       3.291E-5      125.17        0.9258        -18.96         
301.2700      0.14432       -164.66       7.152E-1      -171.48       1.644E-5      18.65         0.92385       -18.91         
305.2600      0.15087       -160.52       7.108E-1      -174.14       7.037E-5      -158.61       0.92241       -18.83         
309.2500      0.15853       -156.71       7.064E-1      -176.75       3.372E-5      -34.37        0.92115       -18.72         
313.2400      0.16738       -153.29       7.017E-1      -179.28       6.461E-5      -47.23        0.92042       -18.57         
317.2300      0.17738       -150.26       6.962E-1      178.16        4.923E-5      -22.82        0.92006       -18.39         
321.2200      0.18857       -147.65       6.911E-1      175.60        6.861E-5      -5.04         0.92006       -18.18         
325.2100      0.20085       -145.47       6.85E-1       172.98        6.648E-5      117.39        0.92023       -17.95         
329.2000      0.21406       -143.72       6.795E-1      170.53        2.123E-5      -90.00        0.92091       -17.68         
333.1900      0.2282        -142.37       6.732E-1      167.92        3.612E-5      -177.53       0.92179       -17.40         
337.1800      0.24312       -141.38       6.67E-1       165.44        1.328E-5      -120.52       0.92289       -17.09         
341.1700      0.25858       -140.78       6.605E-1      162.93        2.474E-5      97.58         0.92413       -16.77         
345.1600      0.27457       -140.50       6.537E-1      160.42        2.444E-5      -102.63       0.92562       -16.45         
349.1500      0.29086       -140.54       6.463E-1      157.96        5.593E-5      -139.36       0.92735       -16.12         
353.1400      0.30733       -140.85       6.392E-1      155.59        5.325E-5      155.13        0.92919       -15.81         
357.1300      0.32374       -141.40       6.32E-1       153.17        3.199E-5      43.77         0.93117       -15.49         
361.1200      0.34006       -142.15       6.249E-1      150.89        1.952E-5      153.26        0.93308       -15.21         
365.1100      0.35605       -143.11       6.17E-1       148.57        4.671E-5      -152.32       0.93522       -14.94         
369.1000      0.37159       -144.20       6.095E-1      146.39        2.587E-5      132.63        0.93727       -14.69         
373.0900      0.38659       -145.43       6.029E-1      144.19        2.188E-5      -174.27       0.93933       -14.49         
377.0800      0.40086       -146.76       5.952E-1      142.03        4.768E-5      119.04        0.94145       -14.32         
381.0700      0.41439       -148.16       5.887E-1      139.85        6.013E-5      152.62        0.94312       -14.18         
385.0600      0.42713       -149.61       5.81E-1       137.82        7.067E-5      120.82        0.94435       -14.09         
389.0500      0.43903       -151.11       5.749E-1      135.73        2.938E-5      170.56        0.94536       -14.05         
393.0400      0.45031       -152.64       5.686E-1      133.65        3.441E-5      -0.81         0.94607       -14.06         
397.0300      0.46089       -154.16       5.621E-1      131.64        8.391E-5      -144.24       0.94635       -14.12         
401.0200      0.47105       -155.69       5.563E-1      129.65        4.476E-5      174.46        0.94609       -14.22         
405.0100      0.4808        -157.26       5.498E-1      127.68        3.933E-5      106.69        0.94567       -14.38         
409.0000      0.4902        -158.89       5.443E-1      125.89        2.936E-5      -12.72        0.94516       -14.58         
412.9900      0.49896       -160.62       5.397E-1      124.08        1.402E-5      -135.14       0.94463       -14.85         
416.9800      0.50665       -162.45       5.365E-1      122.22        1.346E-5      -22.57        0.94407       -15.18         
420.9700      0.51284       -164.34       5.333E-1      120.27        6.085E-5      -154.99       0.94297       -15.60         
424.9600      0.5171        -166.23       5.306E-1      118.30        3.261E-5      -107.58       0.94142       -16.08         
428.9500      0.51966       -168.09       5.279E-1      116.29        2.606E-5      -109.27       0.93926       -16.62         
432.9400      0.52096       -169.86       5.243E-1      114.20        8.778E-6      119.13        0.93677       -17.18         
436.9300      0.5212        -171.52       5.21E-1       112.15        4.56E-5       -63.83        0.9338        -17.76         
440.9200      0.52069       -173.09       5.176E-1      110.00        6.093E-5      75.30         0.93066       -18.36         
444.9100      0.51942       -174.55       5.145E-1      107.91        5.107E-5      -107.43       0.92752       -18.95         
448.9000      0.51753       -175.92       5.097E-1      105.59        5.39E-5       -105.47       0.92436       -19.53         
452.8900      0.51519       -177.20       5.059E-1      103.30        9.836E-5      23.27         0.92138       -20.09         
456.8800      0.51247       -178.36       5.003E-1      101.04        1.885E-5      -114.31       0.91877       -20.62         
460.8700      0.50962       -179.41       4.964E-1      98.74         7.521E-5      112.97        0.91634       -21.11         
464.8600      0.50685       179.65        4.901E-1      96.41         6.106E-5      -69.04        0.91421       -21.57         
468.8500      0.5043        178.81        4.835E-1      94.16         8.947E-5      -65.28        0.91256       -21.96         
472.8400      0.50237       178.04        4.758E-1      91.92         1.342E-5      178.32        0.91132       -22.29         
476.8300      0.5012        177.34        4.679E-1      89.91         1.065E-4      44.44         0.91067       -22.56         
480.8200      0.50095       176.63        4.599E-1      87.91         3.484E-5      28.60         0.91029       -22.75         
484.8100      0.5015        175.88        4.516E-1      86.07         3.00E-5       -128.59       0.9103        -22.87         
488.8000      0.50277       175.03        4.43E-1       84.38         5.062E-5      -92.42        0.91084       -22.92         
492.7900      0.50436       174.05        4.359E-1      82.98         2.386E-5      -69.21        0.91172       -22.89         
496.7800      0.50579       172.92        4.282E-1      81.61         2.515E-5      178.56        0.91296       -22.77         
500.7700      0.50656       171.65        4.221E-1      80.38         2.739E-5      40.28         0.91458       -22.58         
504.7600      0.50629       170.23        4.173E-1      79.16         3.212E-5      118.96        0.91639       -22.32         
508.7500      0.50461       168.70        4.132E-1      78.07         2.547E-5      -58.25        0.91851       -21.99         
512.7400      0.50116       167.09        4.101E-1      76.97         1.206E-4      10.81         0.92072       -21.59         
516.7300      0.49592       165.43        4.071E-1      75.92         2.961E-5      66.54         0.92326       -21.15         
520.7200      0.48887       163.74        4.055E-1      74.96         1.255E-5      108.84        0.92581       -20.66         
524.7100      0.47978       162.10        4.051E-1      73.91         3.676E-5      144.43        0.92845       -20.13         
528.7000      0.4689        160.54        4.06E-1       72.95         2.201E-5      119.21        0.93104       -19.56         
532.6900      0.45635       159.10        4.08E-1       71.95         3.41E-5       58.57         0.93345       -18.97         
536.6800      0.4426        157.83        4.106E-1      70.91         2.889E-5      103.29        0.93584       -18.37         
540.6700      0.42794       156.79        4.15E-1       69.77         4.619E-5      179.96        0.93782       -17.76         
544.6600      0.41285       156.01        4.207E-1      68.50         5.407E-5      29.56         0.93959       -17.15         
548.6500      0.39775       155.48        4.279E-1      67.12         4.451E-5      54.93         0.94115       -16.55         
552.6400      0.3831        155.21        4.354E-1      65.58         3.551E-5      27.11         0.94209       -15.98         
556.6300      0.36916       155.15        4.431E-1      63.75         2.529E-5      -35.72        0.94293       -15.43         
560.6200      0.35613       155.27        4.511E-1      61.65         3.363E-5      23.29         0.94333       -14.90         
564.6100      0.3438        155.54        4.589E-1      59.44         2.709E-5      -82.00        0.94349       -14.42         
568.6000      0.33193       155.92        4.662E-1      57.07         6.245E-5      89.50         0.9434        -13.98         
572.5900      0.32033       156.42        4.732E-1      54.41         3.571E-5      -28.22        0.94313       -13.61         
576.5800      0.30879       157.09        4.79E-1       51.68         1.759E-5      -104.67       0.94262       -13.32         
580.5700      0.29736       157.97        4.838E-1      48.71         4.51E-5       -11.91        0.94179       -13.11         
584.5600      0.28615       159.14        4.88E-1       45.84         5.218E-5      65.76         0.94044       -13.01         
588.5500      0.2753        160.65        4.904E-1      42.74         5.554E-5      88.02         0.93859       -13.00         
592.5400      0.26529       162.58        4.923E-1      39.68         3.801E-5      -28.50        0.93618       -13.09         
596.5300      0.25641       164.94        4.933E-1      36.54         3.658E-5      -118.85       0.93304       -13.27         
600.5200      0.24919       167.72        4.935E-1      33.41         3.154E-5      10.43         0.92932       -13.53         
604.5100      0.24397       170.91        4.923E-1      30.24         3.129E-5      109.34        0.92528       -13.88         
608.5000      0.24123       174.37        4.901E-1      27.05         5.734E-6      157.70        0.92077       -14.31         
612.4900      0.24111       177.99        4.873E-1      23.90         9.675E-6      154.61        0.9161        -14.81         
616.4800      0.24382       -178.39       4.837E-1      20.81         6.895E-5      -57.36        0.91135       -15.39         
620.4700      0.24923       -174.96       4.795E-1      17.65         1.823E-5      6.63          0.90672       -16.02         
624.4600      0.25727       -171.84       4.74E-1       14.58         4.045E-5      -95.49        0.9022        -16.71         
