!    26/06/2026   13:46:24 
! Ref Plane: 0,000 mm
# MHZ S MA R  50
!
10,0000       0,04117       162,89        4,033E-1      -21,97         
13,9900       0,09351       -119,53       3,643E-1      -5,50          
17,9800       0,16472       -122,17       4,095E-1      4,66           
21,9700       0,21592       -128,65       4,714E-1      7,13           
25,9600       0,25131       -134,44       5,245E-1      5,72           
29,9500       0,27668       -139,17       5,629E-1      3,23           
33,9400       0,29548       -143,10       5,921E-1      0,13           
37,9300       0,30835       -145,34       6,058E-1      -2,84          
41,9200       0,32276       -148,09       6,259E-1      -5,72          
45,9100       0,33378       -150,26       6,391E-1      -8,58          
49,9000       0,34406       -152,14       6,436E-1      -11,54         
53,8900       0,35303       -153,79       6,547E-1      -14,46         
57,8800       0,36112       -155,27       6,65E-1       -17,10         
61,8700       0,36943       -156,57       6,695E-1      -19,66         
65,8600       0,37752       -157,96       6,72E-1       -22,37         
69,8500       0,38519       -159,24       6,747E-1      -24,23         
73,8400       0,39264       -160,44       6,779E-1      -26,96         
77,8300       0,40014       -161,81       6,792E-1      -29,11         
81,8200       0,40726       -163,09       6,796E-1      -31,38         
85,8100       0,41417       -164,41       6,805E-1      -33,86         
89,8000       0,42054       -165,74       6,827E-1      -36,29         
93,7900       0,42667       -167,18       6,819E-1      -38,40         
97,7800       0,43208       -168,55       6,836E-1      -40,53         
101,7700      0,43704       -169,92       6,879E-1      -42,47         
105,7600      0,44111       -171,33       6,936E-1      -44,03         
109,7500      0,44506       -172,85       6,937E-1      -46,60         
113,7400      0,44863       -174,37       6,936E-1      -48,93         
117,7300      0,4519        -175,89       6,941E-1      -51,48         
121,7200      0,4543        -177,37       6,955E-1      -53,63         
125,7100      0,45616       -178,85       6,972E-1      -55,75         
129,7000      0,45744       179,68        6,98E-1       -57,95         
133,6900      0,45828       178,19        7,002E-1      -59,96         
137,6800      0,45865       176,71        7,005E-1      -61,93         
141,6700      0,45847       175,26        7,017E-1      -63,90         
145,6600      0,45799       173,81        7,03E-1       -65,93         
149,6500      0,45715       172,36        7,047E-1      -67,98         
153,6400      0,45597       170,93        7,058E-1      -70,00         
157,6300      0,45446       169,51        7,061E-1      -72,01         
161,6200      0,45262       168,13        7,077E-1      -74,14         
165,6100      0,4508        166,77        7,082E-1      -76,24         
169,6000      0,44923       165,32        7,088E-1      -78,23         
173,5900      0,44655       163,87        7,095E-1      -80,34         
177,5800      0,44377       162,44        7,111E-1      -82,38         
181,5700      0,44107       160,99        7,117E-1      -84,46         
185,5600      0,43812       159,46        7,122E-1      -86,50         
189,5500      0,43493       157,87        7,139E-1      -88,45         
193,5400      0,43053       156,22        7,161E-1      -90,49         
197,5300      0,42569       154,57        7,186E-1      -92,52         
201,5200      0,42018       152,93        7,208E-1      -94,60         
205,5100      0,41427       151,29        7,229E-1      -96,68         
209,5000      0,40786       149,66        7,249E-1      -98,78         
213,4900      0,40077       148,02        7,279E-1      -100,88        
217,4800      0,39313       146,38        7,299E-1      -103,08        
221,4700      0,38489       144,73        7,316E-1      -105,19        
225,4600      0,37585       143,10        7,342E-1      -107,37        
229,4500      0,36615       141,49        7,359E-1      -109,50        
233,4400      0,35597       139,95        7,385E-1      -111,76        
237,4300      0,3453        138,44        7,401E-1      -114,04        
241,4200      0,3342        136,99        7,421E-1      -116,27        
245,4100      0,32275       135,62        7,44E-1       -118,59        
249,4000      0,31097       134,34        7,457E-1      -120,84        
253,3900      0,29895       133,13        7,467E-1      -123,12        
257,3800      0,28683       131,99        7,477E-1      -125,37        
261,3700      0,27455       130,93        7,489E-1      -127,69        
265,3600      0,26205       129,90        7,493E-1      -129,98        
269,3500      0,24926       128,84        7,497E-1      -132,18        
273,3400      0,23549       127,69        7,498E-1      -134,42        
277,3300      0,21961       126,57        7,494E-1      -136,58        
281,3200      0,20113       126,08        7,515E-1      -138,84        
285,3100      0,1827        127,16        7,55E-1       -141,21        
289,3000      0,16841       129,53        7,553E-1      -143,81        
293,2900      0,15763       132,03        7,534E-1      -146,35        
297,2800      0,14821       134,41        7,515E-1      -148,87        
301,2700      0,13932       136,84        7,49E-1       -151,31        
305,2600      0,13068       139,46        7,464E-1      -153,76        
309,2500      0,12213       142,47        7,44E-1       -156,16        
313,2400      0,11389       146,03        7,421E-1      -158,55        
317,2300      0,10607       150,30        7,391E-1      -160,94        
321,2200      0,09901       155,51        7,363E-1      -163,32        
325,2100      0,09302       161,82        7,328E-1      -165,81        
329,2000      0,08865       169,24        7,303E-1      -168,14        
333,1900      0,08646       177,73        7,265E-1      -170,63        
337,1800      0,08702       -173,19       7,23E-1       -172,97        
341,1700      0,09078       -164,35       7,194E-1      -175,39        
345,1600      0,09771       -156,44       7,151E-1      -177,84        
349,1500      0,10739       -149,93       7,101E-1      179,71         
353,1400      0,11943       -144,90       7,056E-1      177,33         
357,1300      0,13331       -141,21       7,004E-1      174,93         
361,1200      0,14855       -138,70       6,953E-1      172,58         
365,1100      0,16481       -137,21       6,895E-1      170,22         
369,1000      0,18164       -136,45       6,84E-1       167,96         
373,0900      0,19883       -136,31       6,778E-1      165,62         
377,0800      0,21601       -136,65       6,712E-1      163,36         
381,0700      0,23308       -137,35       6,653E-1      161,07         
385,0600      0,24981       -138,32       6,588E-1      158,89         
389,0500      0,2661        -139,50       6,524E-1      156,64         
393,0400      0,28182       -140,82       6,456E-1      154,42         
397,0300      0,29765       -142,21       6,392E-1      152,24         
401,0200      0,31286       -143,70       6,328E-1      150,12         
405,0100      0,32781       -145,26       6,261E-1      147,99         
409,0000      0,34269       -146,99       6,182E-1      145,95         
412,9900      0,35719       -148,92       6,129E-1      144,03         
416,9800      0,37056       -151,05       6,076E-1      142,07         
420,9700      0,38236       -153,31       6,031E-1      140,00         
424,9600      0,39236       -155,58       5,977E-1      137,90         
428,9500      0,40065       -157,83       5,929E-1      135,88         
432,9400      0,4075        -160,02       5,879E-1      133,72         
436,9300      0,4131        -162,12       5,828E-1      131,70         
440,9200      0,41762       -164,14       5,774E-1      129,57         
444,9100      0,42112       -166,05       5,719E-1      127,45         
448,9000      0,42378       -167,86       5,66E-1       125,13         
452,8900      0,42567       -169,59       5,603E-1      123,00         
456,8800      0,42694       -171,20       5,539E-1      120,76         
460,8700      0,42767       -172,70       5,474E-1      118,52         
464,8600      0,42816       -174,06       5,404E-1      116,25         
468,8500      0,42851       -175,30       5,324E-1      114,02         
472,8400      0,42915       -176,44       5,238E-1      111,76         
476,8300      0,43029       -177,47       5,146E-1      109,65         
480,8200      0,4322        -178,45       5,044E-1      107,59         
484,8100      0,43508       -179,40       4,956E-1      105,73         
488,8000      0,43895       179,61        4,85E-1       103,90         
492,7900      0,44377       178,51        4,75E-1       102,24         
496,7800      0,44921       177,28        4,654E-1      100,60         
500,7700      0,45494       175,89        4,568E-1      99,30          
504,7600      0,46051       174,33        4,489E-1      97,98          
508,7500      0,46556       172,60        4,411E-1      96,65          
512,7400      0,46979       170,72        4,338E-1      95,35          
516,7300      0,47287       168,70        4,276E-1      94,17          
520,7200      0,47481       166,56        4,215E-1      93,06          
524,7100      0,47517       164,34        4,152E-1      91,96          
528,7000      0,47394       162,04        4,10E-1       90,85          
532,6900      0,47105       159,69        4,054E-1      89,87          
536,6800      0,46648       157,30        4,014E-1      89,03          
540,6700      0,46009       154,93        3,97E-1       88,36          
544,6600      0,45182       152,57        3,938E-1      87,71          
548,6500      0,44179       150,25        3,918E-1      87,25          
552,6400      0,43002       148,00        3,924E-1      86,92          
556,6300      0,4166        145,87        3,947E-1      86,46          
560,6200      0,40186       143,89        3,979E-1      86,13          
564,6100      0,38597       142,11        4,03E-1       85,56          
568,6000      0,36921       140,54        4,102E-1      84,84          
572,5900      0,35198       139,21        4,185E-1      83,80          
576,5800      0,33457       138,16        4,281E-1      82,47          
580,5700      0,31725       137,37        4,381E-1      80,88          
584,5600      0,30017       136,90        4,488E-1      78,98          
588,5500      0,28363       136,72        4,578E-1      76,82          
592,5400      0,26776       136,87        4,674E-1      74,46          
596,5300      0,25255       137,29        4,761E-1      71,91          
600,5200      0,23791       138,04        4,837E-1      69,22          
604,5100      0,22386       139,12        4,897E-1      66,33          
608,5000      0,21051       140,62        4,945E-1      63,40          
612,4900      0,19767       142,56        4,987E-1      60,45          
616,4800      0,18572       145,06        5,015E-1      57,40          
620,4700      0,17471       148,23        5,031E-1      54,34          
624,4600      0,16517       152,14        5,031E-1      51,30          
628,4500      0,15737       156,80        5,027E-1      48,22          
632,4400      0,15193       162,20        5,006E-1      45,15          
636,4300      0,14924       168,13        4,978E-1      42,03          
640,4200      0,14972       174,29        4,937E-1      38,87          
644,4100      0,15361       -179,72       4,895E-1      35,92          
648,4000      0,16062       -174,24       4,84E-1       32,84          
652,3900      0,17061       -169,51       4,775E-1      29,82          
656,3800      0,18307       -165,68       4,712E-1      26,78          
660,3700      0,19753       -162,74       4,635E-1      23,90          
664,3600      0,21355       -160,61       4,554E-1      20,98          
668,3500      0,23062       -159,22       4,457E-1      18,13          
672,3400      0,24846       -158,43       4,369E-1      15,41          
676,3300      0,26675       -158,15       4,277E-1      12,72          
680,3200      0,28507       -158,29       4,168E-1      10,06          
684,3100      0,30341       -158,79       4,058E-1      7,46           
688,3000      0,32146       -159,55       3,948E-1      4,95           
692,2900      0,33916       -160,53       3,839E-1      2,53           
696,2800      0,35637       -161,68       3,723E-1      0,21           
700,2700      0,37306       -162,98       3,604E-1      -2,03          
704,2600      0,38924       -164,40       3,486E-1      -4,14          
708,2500      0,40477       -165,91       3,363E-1      -6,13          
712,2400      0,41962       -167,51       3,244E-1      -7,96          
716,2300      0,43384       -169,18       3,124E-1      -9,68          
720,2200      0,4473        -170,92       3,008E-1      -11,23         
724,2100      0,46004       -172,71       2,903E-1      -12,59         
728,2000      0,47186       -174,54       2,80E-1       -13,72         
732,1900      0,48276       -176,41       2,691E-1      -14,75         
736,1800      0,49272       -178,31       2,59E-1       -15,62         
740,1700      0,5018        179,75        2,496E-1      -16,30         
744,1600      0,5099        177,81        2,406E-1      -16,81         
748,1500      0,5169        175,86        2,328E-1      -16,95         
752,1400      0,52291       173,90        2,251E-1      -17,06         
756,1300      0,52788       171,92        2,188E-1      -16,95         
760,1200      0,53174       169,94        2,127E-1      -16,61         
764,1100      0,53454       167,98        2,082E-1      -16,19         
768,1000      0,53619       166,01        2,045E-1      -15,72         
772,0900      0,53675       164,04        2,023E-1      -15,02         
776,0800      0,53621       162,08        2,002E-1      -14,22         
780,0700      0,53456       160,15        2,002E-1      -13,63         
784,0600      0,53164       158,22        2,003E-1      -12,86         
788,0500      0,52769       156,33        2,017E-1      -12,41         
792,0400      0,52256       154,44        2,045E-1      -11,79         
796,0300      0,51642       152,59        2,074E-1      -11,52         
800,0200      0,50918       150,77        2,116E-1      -11,47         
804,0100      0,50084       148,99        2,161E-1      -11,60         
808,0000      0,49152       147,25        2,216E-1      -11,82         
811,9900      0,48131       145,57        2,274E-1      -12,35         
815,9800      0,47017       143,94        2,333E-1      -12,99         
819,9700      0,4582        142,39        2,403E-1      -14,08         
823,9600      0,44535       140,91        2,47E-1       -15,15         
827,9500      0,4319        139,52        2,536E-1      -16,52         
831,9400      0,41763       138,22        2,605E-1      -18,16         
835,9300      0,40277       137,03        2,669E-1      -19,92         
839,9200      0,38731       135,96        2,727E-1      -21,86         
843,9100      0,37139       135,04        2,784E-1      -23,98         
847,9000      0,35509       134,28        2,846E-1      -26,16         
851,8900      0,33864       133,70        2,896E-1      -28,44         
855,8800      0,32224       133,34        2,936E-1      -30,78         
859,8700      0,30589       133,24        2,974E-1      -33,34         
863,8600      0,28989       133,42        3,00E-1       -35,84         
867,8500      0,27433       133,92        3,025E-1      -38,46         
871,8400      0,25939       134,82        3,04E-1       -40,94         
875,8300      0,24544       136,08        3,041E-1      -43,66         
879,8200      0,2325        137,79        3,043E-1      -46,31         
883,8100      0,22092       139,95        3,037E-1      -48,89         
887,8000      0,2107        142,57        3,028E-1      -51,42         
891,7900      0,2022        145,63        3,002E-1      -53,87         
895,7800      0,19552       149,10        2,98E-1       -56,19         
899,7700      0,19083       152,87        2,952E-1      -58,57         
903,7600      0,18836       156,84        2,91E-1       -60,77         
907,7500      0,18828       160,85        2,879E-1      -62,74         
911,7400      0,19055       164,75        2,838E-1      -64,67         
915,7300      0,19509       168,36        2,803E-1      -66,44         
919,7200      0,20164       171,59        2,774E-1      -68,15         
923,7100      0,2101        174,31        2,734E-1      -69,74         
927,7000      0,21997       176,51        2,709E-1      -71,13         
931,6900      0,23111       178,19        2,681E-1      -72,41         
935,6800      0,24301       179,36        2,666E-1      -73,70         
939,6700      0,25554       -179,92       2,65E-1       -74,94         
943,6600      0,26833       -179,57       2,636E-1      -76,13         
947,6500      0,28117       -179,56       2,636E-1      -77,40         
951,6400      0,29378       -179,83       2,642E-1      -78,48         
955,6300      0,30597       179,66        2,655E-1      -79,91         
959,6200      0,3177        178,97        2,67E-1       -81,23         
963,6100      0,32887       178,15        2,684E-1      -82,73         
967,6000      0,33942       177,23        2,702E-1      -84,22         
971,5900      0,3491        176,23        2,725E-1      -85,93         
975,5800      0,35811       175,18        2,745E-1      -87,64         
979,5700      0,36642       174,10        2,759E-1      -89,47         
983,5600      0,37406       173,03        2,778E-1      -91,49         
987,5500      0,38091       171,96        2,793E-1      -93,41         
991,5400      0,38711       170,89        2,808E-1      -95,61         
995,5300      0,39277       169,86        2,816E-1      -97,79         
999,5200      0,39757       168,86        2,815E-1      -100,01        
1003,5100     0,40183       167,89        2,811E-1      -102,18        
1007,5000     0,40574       166,97        2,81E-1       -104,47        
1011,4900     0,40901       166,08        2,80E-1       -106,80        
1015,4800     0,41193       165,24        2,777E-1      -109,08        
1019,4700     0,41451       164,43        2,755E-1      -111,32        
1023,4600     0,41656       163,68        2,739E-1      -113,59        
1027,4500     0,41822       162,97        2,713E-1      -115,93        
1031,4400     0,4195        162,31        2,684E-1      -118,15        
1035,4300     0,42046       161,70        2,649E-1      -120,17        
1039,4200     0,4211        161,13        2,623E-1      -122,26        
1043,4100     0,42153       160,61        2,586E-1      -124,34        
1047,4000     0,42177       160,15        2,547E-1      -126,26        
1051,3900     0,42187       159,72        2,511E-1      -128,00        
1055,3800     0,42187       159,34        2,47E-1       -129,74        
1059,3700     0,42195       158,98        2,437E-1      -131,50        
1063,3600     0,42206       158,66        2,397E-1      -132,99        
1067,3500     0,42222       158,35        2,357E-1      -134,69        
1071,3400     0,42249       158,06        2,323E-1      -135,89        
1075,3300     0,4228        157,77        2,286E-1      -137,31        
1079,3200     0,42335       157,47        2,255E-1      -138,53        
1083,3100     0,42382       157,15        2,224E-1      -139,50        
1087,3000     0,42443       156,80        2,192E-1      -140,52        
1091,2900     0,42508       156,41        2,17E-1       -141,41        
1095,2800     0,42543       156,00        2,158E-1      -142,18        
1099,2700     0,42565       155,55        2,144E-1      -142,96        
1103,2600     0,42568       155,09        2,13E-1       -143,68        
1107,2500     0,42542       154,58        2,128E-1      -144,27        
