!    26/06/2026   13:39:44 
! Ref Plane: 0,000 mm
# MHZ S MA R  50
!
10,0000       0,27064       -179,58       6,911E-1      -6,73          
13,9900       0,26569       -178,92       6,928E-1      -8,80          
17,9800       0,2618        -177,59       6,889E-1      -10,90         
21,9700       0,25998       -175,84       6,853E-1      -12,80         
25,9600       0,2604        -173,94       6,803E-1      -14,90         
29,9500       0,2629        -172,06       6,747E-1      -16,67         
33,9400       0,26731       -170,30       6,707E-1      -18,45         
37,9300       0,27303       -168,78       6,659E-1      -20,17         
41,9200       0,28013       -167,45       6,598E-1      -22,30         
45,9100       0,28802       -166,40       6,588E-1      -24,23         
49,9000       0,29679       -165,59       6,578E-1      -26,18         
53,8900       0,30597       -165,03       6,587E-1      -28,24         
57,8800       0,31525       -164,72       6,604E-1      -30,00         
61,8700       0,32518       -164,54       6,58E-1       -31,76         
65,8600       0,33539       -164,68       6,517E-1      -33,87         
69,8500       0,34537       -164,92       6,512E-1      -35,67         
73,8400       0,35536       -165,32       6,511E-1      -37,53         
77,8300       0,36505       -165,90       6,496E-1      -39,55         
81,8200       0,37462       -166,59       6,493E-1      -41,74         
85,8100       0,38362       -167,41       6,502E-1      -43,37         
89,8000       0,39224       -168,32       6,499E-1      -45,58         
93,7900       0,40048       -169,36       6,474E-1      -47,27         
97,7800       0,40801       -170,44       6,473E-1      -49,15         
101,7700      0,41486       -171,55       6,498E-1      -50,84         
105,7600      0,4209        -172,71       6,524E-1      -52,17         
109,7500      0,427         -174,03       6,498E-1      -54,77         
113,7400      0,43228       -175,34       6,499E-1      -57,16         
117,7300      0,43692       -176,66       6,503E-1      -59,21         
121,7200      0,44089       -177,99       6,514E-1      -61,11         
125,7100      0,44433       -179,34       6,515E-1      -62,97         
129,7000      0,44714       179,31        6,519E-1      -64,79         
133,6900      0,44931       177,93        6,526E-1      -66,62         
137,6800      0,45106       176,55        6,532E-1      -68,46         
141,6700      0,45228       175,17        6,546E-1      -70,36         
145,6600      0,45295       173,78        6,558E-1      -72,27         
149,6500      0,45336       172,38        6,566E-1      -74,24         
153,6400      0,45325       170,98        6,576E-1      -76,19         
157,6300      0,45279       169,57        6,586E-1      -78,08         
161,6200      0,45182       168,15        6,602E-1      -80,07         
165,6100      0,45041       166,74        6,608E-1      -82,10         
169,6000      0,44895       165,31        6,622E-1      -84,11         
173,5900      0,44688       163,84        6,625E-1      -86,12         
177,5800      0,44435       162,36        6,645E-1      -88,11         
181,5700      0,44141       160,85        6,662E-1      -90,19         
185,5600      0,43799       159,32        6,673E-1      -92,23         
189,5500      0,43408       157,78        6,691E-1      -94,27         
193,5400      0,4299        156,21        6,71E-1       -96,32         
197,5300      0,42515       154,58        6,734E-1      -98,39         
201,5200      0,41963       152,93        6,738E-1      -100,43        
205,5100      0,41365       151,29        6,756E-1      -102,53        
209,5000      0,40692       149,63        6,783E-1      -104,60        
213,4900      0,39939       147,98        6,808E-1      -106,73        
217,4800      0,39121       146,33        6,831E-1      -108,88        
221,4700      0,38236       144,70        6,847E-1      -111,07        
225,4600      0,37281       143,09        6,871E-1      -113,21        
229,4500      0,36251       141,50        6,89E-1       -115,38        
233,4400      0,35159       139,97        6,92E-1       -117,61        
237,4300      0,34012       138,49        6,933E-1      -119,90        
241,4200      0,32813       137,09        6,955E-1      -122,11        
245,4100      0,31578       135,78        6,972E-1      -124,46        
249,4000      0,30305       134,57        6,988E-1      -126,79        
253,3900      0,28998       133,46        7,004E-1      -129,08        
257,3800      0,27688       132,47        7,014E-1      -131,36        
261,3700      0,2635        131,58        7,031E-1      -133,76        
265,3600      0,24983       130,77        7,036E-1      -136,09        
269,3500      0,23582       130,00        7,037E-1      -138,38        
273,3400      0,22084       129,23        7,036E-1      -140,63        
277,3300      0,2039        128,66        7,036E-1      -142,94        
281,3200      0,18487       128,98        7,051E-1      -145,28        
285,3100      0,16667       131,10        7,066E-1      -147,67        
289,3000      0,15313       134,64        7,064E-1      -150,30        
293,2900      0,14331       138,33        7,047E-1      -152,82        
297,2800      0,13478       141,92        7,033E-1      -155,36        
301,2700      0,12679       145,74        7,009E-1      -157,85        
305,2600      0,11938       150,03        6,977E-1      -160,39        
309,2500      0,11273       155,01        6,959E-1      -162,88        
313,2400      0,10719       160,79        6,935E-1      -165,31        
317,2300      0,10319       167,37        6,907E-1      -167,73        
321,2200      0,10114       174,64        6,875E-1      -170,19        
325,2100      0,10142       -177,67       6,838E-1      -172,70        
329,2000      0,10436       -170,08       6,804E-1      -175,11        
333,1900      0,11          -162,97       6,774E-1      -177,64        
337,1800      0,11817       -156,72       6,726E-1      179,95         
341,1700      0,12867       -151,55       6,685E-1      177,47         
345,1600      0,14117       -147,47       6,641E-1      174,97         
349,1500      0,1552        -144,44       6,59E-1       172,54         
353,1400      0,1705        -142,34       6,535E-1      170,09         
357,1300      0,18668       -140,97       6,479E-1      167,68         
361,1200      0,2035        -140,25       6,425E-1      165,34         
365,1100      0,22063       -140,07       6,367E-1      162,99         
369,1000      0,2379        -140,32       6,304E-1      160,69         
373,0900      0,25506       -140,91       6,243E-1      158,41         
377,0800      0,27192       -141,78       6,176E-1      156,16         
381,0700      0,28838       -142,86       6,119E-1      153,95         
385,0600      0,30427       -144,11       6,051E-1      151,70         
389,0500      0,31949       -145,47       5,989E-1      149,57         
393,0400      0,33411       -146,93       5,928E-1      147,35         
397,0300      0,34819       -148,43       5,869E-1      145,30         
401,0200      0,36183       -149,97       5,801E-1      143,17         
405,0100      0,37514       -151,58       5,739E-1      141,04         
409,0000      0,38809       -153,32       5,672E-1      139,01         
412,9900      0,40042       -155,19       5,616E-1      137,17         
416,9800      0,41152       -157,20       5,568E-1      135,19         
420,9700      0,42112       -159,29       5,524E-1      133,19         
424,9600      0,42898       -161,39       5,478E-1      131,20         
428,9500      0,43525       -163,47       5,441E-1      129,15         
432,9400      0,44023       -165,49       5,394E-1      127,12         
436,9300      0,44406       -167,43       5,348E-1      125,08         
440,9200      0,44688       -169,30       5,298E-1      122,95         
444,9100      0,44879       -171,07       5,252E-1      120,88         
448,9000      0,44986       -172,77       5,197E-1      118,71         
452,8900      0,45027       -174,39       5,144E-1      116,46         
456,8800      0,4502        -175,89       5,086E-1      114,20         
460,8700      0,44964       -177,30       5,023E-1      112,09         
464,8600      0,44895       -178,59       4,964E-1      109,82         
468,8500      0,4483        -179,79       4,884E-1      107,61         
472,8400      0,44802       179,09        4,804E-1      105,42         
476,8300      0,44821       178,04        4,718E-1      103,45         
480,8200      0,44919       177,02        4,632E-1      101,54         
484,8100      0,45101       175,98        4,544E-1      99,65          
488,8000      0,45359       174,87        4,454E-1      97,96          
492,7900      0,45675       173,64        4,369E-1      96,35          
496,7800      0,46017       172,27        4,286E-1      94,95          
500,7700      0,46353       170,75        4,208E-1      93,79          
504,7600      0,46626       169,07        4,137E-1      92,55          
508,7500      0,46811       167,24        4,072E-1      91,33          
512,7400      0,46878       165,29        4,018E-1      90,32          
516,7300      0,46807       163,23        3,97E-1       89,26          
520,7200      0,46578       161,08        3,916E-1      88,45          
524,7100      0,46166       158,89        3,883E-1      87,60          
528,7000      0,4557        156,67        3,858E-1      86,83          
532,6900      0,44795       154,49        3,843E-1      86,05          
536,6800      0,43848       152,34        3,841E-1      85,45          
540,6700      0,42723       150,30        3,848E-1      84,91          
544,6600      0,41448       148,43        3,873E-1      84,27          
548,6500      0,40042       146,71        3,917E-1      83,60          
552,6400      0,38557       145,22        3,986E-1      82,83          
556,6300      0,37007       143,98        4,054E-1      81,82          
560,6200      0,35462       143,01        4,135E-1      80,64          
564,6100      0,33927       142,31        4,227E-1      79,11          
568,6000      0,32435       141,83        4,313E-1      77,36          
572,5900      0,30985       141,55        4,412E-1      75,33          
576,5800      0,29578       141,45        4,494E-1      73,14          
580,5700      0,28199       141,54        4,572E-1      70,59          
584,5600      0,26847       141,83        4,646E-1      68,01          
588,5500      0,25502       142,33        4,699E-1      65,26          
592,5400      0,2418        143,13        4,761E-1      62,47          
596,5300      0,22863       144,27        4,806E-1      59,53          
600,5200      0,21577       145,82        4,832E-1      56,50          
604,5100      0,20332       147,93        4,851E-1      53,46          
608,5000      0,19171       150,66        4,87E-1       50,47          
612,4900      0,1813        154,13        4,866E-1      47,35          
616,4800      0,17263       158,39        4,854E-1      44,30          
620,4700      0,16629       163,38        4,839E-1      41,18          
624,4600      0,16286       168,99        4,812E-1      38,20          
628,4500      0,16263       174,88        4,778E-1      35,08          
632,4400      0,16594       -179,29       4,73E-1       32,03          
636,4300      0,17257       -173,91       4,675E-1      29,00          
640,4200      0,18221       -169,24       4,618E-1      25,99          
644,4100      0,19451       -165,40       4,555E-1      23,00          
648,4000      0,20881       -162,42       4,481E-1      20,07          
652,3900      0,22476       -160,24       4,404E-1      17,17          
656,3800      0,24179       -158,76       4,326E-1      14,31          
660,3700      0,25953       -157,89       4,232E-1      11,56          
664,3600      0,27776       -157,51       4,147E-1      8,85           
668,3500      0,29608       -157,56       4,052E-1      6,17           
672,3400      0,31437       -157,94       3,954E-1      3,64           
676,3300      0,33235       -158,61       3,854E-1      1,16           
680,3200      0,34988       -159,50       3,751E-1      -1,25          
684,3100      0,36693       -160,59       3,644E-1      -3,57          
688,3000      0,38332       -161,81       3,543E-1      -5,92          
692,2900      0,39905       -163,17       3,438E-1      -8,03          
696,2800      0,41412       -164,60       3,328E-1      -10,16         
700,2700      0,42839       -166,12       3,217E-1      -12,04         
704,2600      0,44203       -167,71       3,111E-1      -13,88         
708,2500      0,45485       -169,36       3,002E-1      -15,61         
712,2400      0,46686       -171,04       2,894E-1      -17,13         
716,2300      0,47805       -172,78       2,784E-1      -18,51         
720,2200      0,48845       -174,56       2,689E-1      -19,70         
724,2100      0,49793       -176,36       2,60E-1       -20,64         
728,2000      0,50644       -178,19       2,51E-1       -21,41         
732,1900      0,51396       179,96        2,424E-1      -22,04         
736,1800      0,52042       178,07        2,343E-1      -22,51         
740,1700      0,52586       176,18        2,27E-1       -22,72         
744,1600      0,53026       174,28        2,21E-1       -22,81         
748,1500      0,53352       172,39        2,154E-1      -22,68         
752,1400      0,53571       170,48        2,103E-1      -22,37         
756,1300      0,53681       168,58        2,066E-1      -21,93         
760,1200      0,53668       166,68        2,038E-1      -21,48         
764,1100      0,5354        164,80        2,023E-1      -20,84         
768,1000      0,53295       162,93        2,025E-1      -20,47         
772,0900      0,52928       161,07        2,028E-1      -19,80         
776,0800      0,52446       159,25        2,045E-1      -19,45         
780,0700      0,51845       157,46        2,07E-1       -19,20         
784,0600      0,51116       155,71        2,104E-1      -19,08         
788,0500      0,50279       154,02        2,149E-1      -19,21         
792,0400      0,4934        152,37        2,199E-1      -19,47         
796,0300      0,48298       150,80        2,25E-1       -19,95         
800,0200      0,47158       149,33        2,319E-1      -20,75         
804,0100      0,45933       147,94        2,382E-1      -21,74         
808,0000      0,44636       146,66        2,445E-1      -23,05         
811,9900      0,43284       145,52        2,516E-1      -24,46         
815,9800      0,4188        144,49        2,575E-1      -26,15         
819,9700      0,40449       143,66        2,652E-1      -27,99         
823,9600      0,38982       142,97        2,711E-1      -29,93         
827,9500      0,37523       142,48        2,777E-1      -32,16         
831,9400      0,36063       142,20        2,825E-1      -34,56         
835,9300      0,34625       142,13        2,873E-1      -37,07         
839,9200      0,33223       142,29        2,916E-1      -39,75         
843,9100      0,31869       142,70        2,954E-1      -42,44         
847,9000      0,30582       143,34        2,982E-1      -45,03         
851,8900      0,29374       144,22        2,997E-1      -47,86         
855,8800      0,28268       145,35        3,008E-1      -50,70         
859,8700      0,27259       146,71        3,016E-1      -53,43         
863,8600      0,26357       148,28        3,005E-1      -56,23         
867,8500      0,2556        150,03        2,996E-1      -59,08         
871,8400      0,24871       152,00        2,968E-1      -61,81         
875,8300      0,24304       154,11        2,948E-1      -64,55         
879,8200      0,23849       156,39        2,912E-1      -67,09         
883,8100      0,23523       158,81        2,874E-1      -69,60         
887,8000      0,23321       161,35        2,835E-1      -72,03         
891,7900      0,23265       163,96        2,792E-1      -74,41         
895,7800      0,2336        166,59        2,743E-1      -76,53         
899,7700      0,23607       169,17        2,693E-1      -78,59         
903,7600      0,24006       171,61        2,642E-1      -80,59         
907,7500      0,24582       173,84        2,599E-1      -82,19         
911,7400      0,2531        175,79        2,553E-1      -83,78         
915,7300      0,26163       177,42        2,511E-1      -85,22         
919,7200      0,27131       178,71        2,469E-1      -86,55         
923,7100      0,2818        179,64        2,43E-1       -87,71         
927,7000      0,29292       -179,76       2,412E-1      -88,93         
931,6900      0,30435       -179,48       2,391E-1      -89,90         
935,6800      0,31585       -179,48       2,367E-1      -90,88         
939,6700      0,32717       -179,71       2,357E-1      -91,77         
943,6600      0,33815       179,84        2,357E-1      -92,75         
947,6500      0,34872       179,25        2,361E-1      -93,84         
951,6400      0,35859       178,51        2,373E-1      -94,84         
955,6300      0,36783       177,65        2,386E-1      -95,98         
959,6200      0,37626       176,72        2,404E-1      -97,28         
963,6100      0,384         175,74        2,42E-1       -98,74         
967,6000      0,391         174,74        2,442E-1      -100,20        
971,5900      0,39712       173,73        2,458E-1      -101,84        
975,5800      0,40258       172,71        2,479E-1      -103,48        
979,5700      0,4074        171,73        2,491E-1      -105,25        
983,5600      0,41167       170,79        2,522E-1      -107,49        
987,5500      0,41536       169,88        2,53E-1       -109,44        
991,5400      0,41865       169,02        2,532E-1      -111,47        
995,5300      0,4215        168,21        2,537E-1      -113,83        
999,5200      0,42391       167,47        2,533E-1      -116,26        
1003,5100     0,42604       166,75        2,523E-1      -118,45        
1007,5000     0,42818       166,10        2,512E-1      -120,74        
1011,4900     0,42998       165,50        2,502E-1      -123,09        
1015,4800     0,4319        164,93        2,481E-1      -125,41        
1019,4700     0,43379       164,38        2,453E-1      -127,53        
1023,4600     0,4356        163,88        2,422E-1      -129,66        
1027,4500     0,43738       163,40        2,396E-1      -131,94        
1031,4400     0,43918       162,92        2,362E-1      -133,93        
1035,4300     0,44097       162,47        2,324E-1      -135,98        
1039,4200     0,44267       162,01        2,287E-1      -137,70        
1043,4100     0,44449       161,56        2,247E-1      -139,54        
1047,4000     0,44618       161,09        2,21E-1       -141,07        
1051,3900     0,44777       160,60        2,183E-1      -142,37        
1055,3800     0,4492        160,10        2,148E-1      -143,75        
1059,3700     0,45058       159,56        2,122E-1      -144,88        
1063,3600     0,45165       158,98        2,091E-1      -145,91        
1067,3500     0,4524        158,41        2,072E-1      -147,11        
1071,3400     0,45275       157,79        2,058E-1      -148,10        
1075,3300     0,45268       157,17        2,04E-1       -149,11        
1079,3200     0,45213       156,52        2,029E-1      -149,84        
1083,3100     0,451         155,86        2,026E-1      -150,57        
1087,3000     0,44939       155,20        2,016E-1      -151,26        
1091,2900     0,44723       154,56        2,031E-1      -152,19        
1095,2800     0,44433       153,94        2,033E-1      -153,17        
1099,2700     0,44071       153,34        2,045E-1      -154,07        
1103,2600     0,4368        152,80        2,054E-1      -155,04        
1107,2500     0,43231       152,29        2,072E-1      -156,06        
