!    26/06/2026   14:16:24 
! Ref Plane: 0.000 mm
# MHZ S MA R  50
!
10.0000       0.06605       81.72         1.03E0        -2.37         5.228E-5      -42.43        0.91013       -20.15         
13.9900       0.08524       73.11         1.033E0       -3.03         1.203E-5      159.02        0.91323       -19.71         
17.9800       0.10062       66.75         1.032E0       -3.67         2.999E-5      174.75        0.91609       -19.28         
21.9700       0.11281       62.08         1.03E0        -4.24         2.231E-5      127.72        0.91893       -18.88         
25.9600       0.12283       58.64         1.027E0       -4.90         3.355E-5      75.91         0.92206       -18.51         
29.9500       0.13119       56.06         1.024E0       -5.36         5.076E-5      39.95         0.92476       -18.18         
33.9400       0.13848       54.14         1.02E0        -5.79         1.697E-5      -127.62       0.92799       -17.86         
37.9300       0.14501       52.58         1.019E0       -6.32         2.197E-5      -97.80        0.93028       -17.56         
41.9200       0.15083       51.43         1.016E0       -6.84         2.355E-5      -119.32       0.93243       -17.27         
45.9100       0.15621       50.53         1.014E0       -7.35         6.352E-5      -70.84        0.93442       -17.00         
49.9000       0.16158       49.89         1.002E0       -7.80         7.379E-5      -20.52        0.93619       -16.78         
53.8900       0.1664        49.34         1.006E0       -8.55         4.588E-5      51.41         0.93772       -16.55         
57.8800       0.17077       48.92         1.013E0       -9.06         2.115E-5      68.98         0.93905       -16.30         
61.8700       0.17515       48.74         1.013E0       -9.69         4.965E-5      -60.83        0.94002       -16.14         
65.8600       0.17952       48.61         1.01E0        -10.51        3.181E-5      56.40         0.94066       -15.96         
69.8500       0.18371       48.61         1.008E0       -10.56        2.364E-6      -59.22        0.94083       -15.81         
73.8400       0.18757       48.74         1.009E0       -11.51        1.639E-5      63.93         0.94082       -15.71         
77.8300       0.19187       48.91         1.006E0       -11.98        3.754E-5      -135.61       0.94048       -15.60         
81.8200       0.19592       49.21         1.006E0       -12.65        1.533E-5      -95.60        0.93984       -15.54         
85.8100       0.1999        49.60         1.006E0       -13.56        3.582E-5      37.36         0.93899       -15.53         
89.8000       0.20402       50.06         1.004E0       -14.11        5.603E-5      -169.45       0.93786       -15.54         
93.7900       0.20868       50.56         9.937E-1      -14.64        3.397E-5      106.63        0.93668       -15.62         
97.7800       0.21329       51.14         9.933E-1      -15.24        3.056E-5      -38.51        0.93488       -15.66         
101.7700      0.21827       51.76         9.983E-1      -15.62        4.428E-5      -5.71         0.93285       -15.75         
105.7600      0.22343       52.37         1.004E0       -15.70        5.99E-5       -106.34       0.93089       -15.87         
109.7500      0.22926       52.95         1.002E0       -16.91        2.238E-5      -152.11       0.9288        -16.01         
113.7400      0.23547       53.55         9.995E-1      -17.92        2.437E-5      -67.92        0.92683       -16.15         
117.7300      0.24203       54.09         9.972E-1      -18.68        5.642E-5      85.81         0.92481       -16.31         
121.7200      0.24901       54.57         9.96E-1       -19.37        4.912E-5      -91.59        0.92292       -16.47         
125.7100      0.25632       54.97         9.929E-1      -20.05        3.274E-5      -163.27       0.9212        -16.64         
129.7000      0.26384       55.29         9.888E-1      -20.70        5.159E-5      -65.97        0.91955       -16.80         
133.6900      0.2717        55.53         9.85E-1       -21.41        3.549E-5      71.60         0.91821       -16.96         
137.6800      0.2796        55.70         9.82E-1       -22.17        4.29E-5       -152.78       0.91714       -17.12         
141.6700      0.28756       55.78         9.788E-1      -22.89        4.013E-5      149.80        0.91646       -17.26         
145.6600      0.29562       55.78         9.753E-1      -23.52        2.284E-5      -137.64       0.91602       -17.38         
149.6500      0.30363       55.72         9.712E-1      -24.07        2.744E-5      139.55        0.91592       -17.50         
153.6400      0.31161       55.57         9.679E-1      -24.64        1.799E-5      -81.39        0.91611       -17.59         
157.6300      0.31957       55.37         9.65E-1       -25.15        1.082E-4      171.61        0.91673       -17.66         
161.6200      0.32748       55.14         9.626E-1      -25.72        1.126E-4      79.35         0.9176        -17.71         
165.6100      0.33544       54.86         9.592E-1      -26.28        3.298E-5      167.36        0.91885       -17.75         
169.6000      0.34329       54.54         9.565E-1      -26.84        1.112E-4      -170.29       0.92034       -17.76         
173.5900      0.35079       54.21         9.529E-1      -27.39        2.494E-5      124.24        0.92197       -17.76         
177.5800      0.35819       53.89         9.508E-1      -27.93        7.522E-5      -169.36       0.92387       -17.75         
181.5700      0.36541       53.56         9.482E-1      -28.45        5.732E-5      -156.11       0.92587       -17.71         
185.5600      0.37238       53.22         9.455E-1      -29.00        6.773E-5      158.10        0.92803       -17.67         
189.5500      0.37923       52.91         9.439E-1      -29.59        1.923E-5      157.03        0.93039       -17.60         
193.5400      0.38587       52.57         9.401E-1      -30.14        6.567E-5      -71.46        0.93257       -17.55         
197.5300      0.39224       52.26         9.374E-1      -30.72        6.693E-5      137.12        0.93475       -17.48         
201.5200      0.39851       51.99         9.346E-1      -31.25        3.705E-5      127.13        0.937         -17.42         
205.5100      0.40477       51.74         9.32E-1       -31.79        3.396E-5      -19.61        0.93907       -17.36         
209.5000      0.41101       51.52         9.292E-1      -32.33        5.486E-5      57.11         0.94103       -17.29         
213.4900      0.41725       51.30         9.265E-1      -32.89        5.661E-5      127.22        0.94284       -17.24         
217.4800      0.42354       51.10         9.24E-1       -33.50        1.515E-5      101.46        0.94431       -17.21         
221.4700      0.42986       50.91         9.213E-1      -34.06        1.682E-5      -151.38       0.94565       -17.18         
225.4600      0.4363        50.73         9.183E-1      -34.62        3.529E-5      -163.26       0.94664       -17.17         
229.4500      0.44291       50.54         9.154E-1      -35.12        7.377E-5      -126.36       0.94755       -17.18         
233.4400      0.44962       50.35         9.121E-1      -35.72        1.583E-5      -143.08       0.94797       -17.18         
237.4300      0.45646       50.14         9.077E-1      -36.29        2.786E-5      44.64         0.94809       -17.22         
241.4200      0.46347       49.92         9.048E-1      -36.83        9.532E-6      13.90         0.94791       -17.26         
245.4100      0.47058       49.68         9.007E-1      -37.43        2.107E-5      89.38         0.9476        -17.32         
249.4000      0.47782       49.40         8.963E-1      -37.99        2.415E-5      -34.94        0.94692       -17.39         
253.3900      0.48487       49.08         8.927E-1      -38.52        3.621E-5      39.16         0.94628       -17.47         
257.3800      0.49178       48.71         8.884E-1      -39.06        5.152E-5      179.71        0.94548       -17.56         
261.3700      0.49833       48.30         8.853E-1      -39.55        2.58E-5       140.78        0.94479       -17.66         
265.3600      0.50427       47.85         8.815E-1      -40.04        5.349E-5      83.19         0.94445       -17.76         
269.3500      0.50932       47.38         8.783E-1      -40.48        4.969E-5      138.24        0.94459       -17.91         
273.3400      0.51302       46.98         8.759E-1      -40.86        2.859E-5      2.71          0.94459       -18.13         
277.3300      0.51568       46.77         8.74E-1       -41.39        1.511E-5      -148.58       0.94332       -18.44         
281.3200      0.5195        46.89         8.739E-1      -42.02        2.835E-5      -89.06        0.93981       -18.71         
285.3100      0.52738       47.10         8.707E-1      -42.81        3.077E-6      122.90        0.93548       -18.88         
289.3000      0.53833       46.97         8.635E-1      -43.56        4.921E-5      -76.83        0.93154       -18.96         
293.2900      0.54913       46.46         8.549E-1      -44.03        6.312E-5      113.52        0.92836       -18.98         
297.2800      0.55832       45.73         8.478E-1      -44.43        3.291E-5      125.17        0.9258        -18.96         
301.2700      0.56599       44.94         8.411E-1      -44.75        1.644E-5      18.65         0.92385       -18.91         
305.2600      0.57256       44.15         8.355E-1      -45.02        7.037E-5      -158.61       0.92241       -18.83         
309.2500      0.57817       43.35         8.314E-1      -45.35        3.372E-5      -34.37        0.92115       -18.72         
313.2400      0.58316       42.56         8.273E-1      -45.56        6.461E-5      -47.23        0.92042       -18.57         
317.2300      0.58759       41.78         8.236E-1      -45.80        4.923E-5      -22.82        0.92006       -18.39         
321.2200      0.59147       41.02         8.203E-1      -46.09        6.861E-5      -5.04         0.92006       -18.18         
325.2100      0.59489       40.29         8.183E-1      -46.39        6.648E-5      117.39        0.92023       -17.95         
329.2000      0.59792       39.58         8.163E-1      -46.68        2.123E-5      -90.00        0.92091       -17.68         
333.1900      0.60053       38.90         8.142E-1      -47.02        3.612E-5      -177.53       0.92179       -17.40         
337.1800      0.60257       38.24         8.127E-1      -47.31        1.328E-5      -120.52       0.92289       -17.09         
341.1700      0.6042        37.61         8.122E-1      -47.65        2.474E-5      97.58         0.92413       -16.77         
345.1600      0.60566       37.02         8.112E-1      -48.00        2.444E-5      -102.63       0.92562       -16.45         
349.1500      0.60686       36.46         8.11E-1       -48.33        5.593E-5      -139.36       0.92735       -16.12         
353.1400      0.60793       35.94         8.107E-1      -48.74        5.325E-5      155.13        0.92919       -15.81         
357.1300      0.6089        35.46         8.106E-1      -49.11        3.199E-5      43.77         0.93117       -15.49         
361.1200      0.60982       35.00         8.101E-1      -49.56        1.952E-5      153.26        0.93308       -15.21         
365.1100      0.61083       34.61         8.102E-1      -50.00        4.671E-5      -152.32       0.93522       -14.94         
369.1000      0.61181       34.26         8.10E-1       -50.50        2.587E-5      132.63        0.93727       -14.69         
373.0900      0.61291       33.96         8.099E-1      -51.03        2.188E-5      -174.27       0.93933       -14.49         
377.0800      0.61429       33.70         8.088E-1      -51.54        4.768E-5      119.04        0.94145       -14.32         
381.0700      0.61568       33.45         8.08E-1       -52.09        6.013E-5      152.62        0.94312       -14.18         
385.0600      0.61721       33.24         8.076E-1      -52.63        7.067E-5      120.82        0.94435       -14.09         
389.0500      0.61897       33.04         8.07E-1       -53.17        2.938E-5      170.56        0.94536       -14.05         
393.0400      0.62065       32.86         8.064E-1      -53.77        3.441E-5      -0.81         0.94607       -14.06         
397.0300      0.62202       32.68         8.056E-1      -54.28        8.391E-5      -144.24       0.94635       -14.12         
401.0200      0.62313       32.55         8.055E-1      -54.85        4.476E-5      174.46        0.94609       -14.22         
405.0100      0.62398       32.52         8.068E-1      -55.49        3.933E-5      106.69        0.94567       -14.38         
409.0000      0.62529       32.61         8.072E-1      -56.23        2.936E-5      -12.72        0.94516       -14.58         
412.9900      0.62782       32.79         8.074E-1      -57.13        1.402E-5      -135.14       0.94463       -14.85         
416.9800      0.63197       32.97         8.06E-1       -58.00        1.346E-5      -22.57        0.94407       -15.18         
420.9700      0.63754       33.10         8.022E-1      -59.01        6.085E-5      -154.99       0.94297       -15.60         
424.9600      0.64396       33.18         7.971E-1      -59.89        3.261E-5      -107.58       0.94142       -16.08         
428.9500      0.65093       33.16         7.904E-1      -60.74        2.606E-5      -109.27       0.93926       -16.62         
432.9400      0.65823       33.08         7.829E-1      -61.53        8.778E-6      119.13        0.93677       -17.18         
436.9300      0.66567       32.93         7.748E-1      -62.18        4.56E-5       -63.83        0.9338        -17.76         
440.9200      0.67326       32.72         7.668E-1      -62.79        6.093E-5      75.30         0.93066       -18.36         
444.9100      0.68078       32.46         7.585E-1      -63.33        5.107E-5      -107.43       0.92752       -18.95         
448.9000      0.68829       32.15         7.495E-1      -63.83        5.39E-5       -105.47       0.92436       -19.53         
452.8900      0.69564       31.79         7.413E-1      -64.29        9.836E-5      23.27         0.92138       -20.09         
456.8800      0.70267       31.40         7.331E-1      -64.66        1.885E-5      -114.31       0.91877       -20.62         
460.8700      0.70944       30.98         7.258E-1      -64.98        7.521E-5      112.97        0.91634       -21.11         
464.8600      0.71595       30.54         7.183E-1      -65.25        6.106E-5      -69.04        0.91421       -21.57         
468.8500      0.72204       30.07         7.112E-1      -65.53        8.947E-5      -65.28        0.91256       -21.96         
472.8400      0.72772       29.57         7.052E-1      -65.73        1.342E-5      178.32        0.91132       -22.29         
476.8300      0.73302       29.07         6.992E-1      -65.86        1.065E-4      44.44         0.91067       -22.56         
480.8200      0.73789       28.55         6.934E-1      -66.01        3.484E-5      28.60         0.91029       -22.75         
484.8100      0.74241       28.03         6.884E-1      -66.21        3.00E-5       -128.59       0.9103        -22.87         
488.8000      0.74664       27.50         6.84E-1       -66.25        5.062E-5      -92.42        0.91084       -22.92         
492.7900      0.75057       26.96         6.794E-1      -66.34        2.386E-5      -69.21        0.91172       -22.89         
496.7800      0.7542        26.43         6.753E-1      -66.46        2.515E-5      178.56        0.91296       -22.77         
500.7700      0.75747       25.91         6.719E-1      -66.49        2.739E-5      40.28         0.91458       -22.58         
504.7600      0.76036       25.39         6.683E-1      -66.59        3.212E-5      118.96        0.91639       -22.32         
508.7500      0.76307       24.87         6.657E-1      -66.68        2.547E-5      -58.25        0.91851       -21.99         
512.7400      0.76559       24.38         6.628E-1      -66.77        1.206E-4      10.81         0.92072       -21.59         
516.7300      0.76778       23.89         6.607E-1      -66.85        2.961E-5      66.54         0.92326       -21.15         
520.7200      0.76974       23.41         6.585E-1      -66.91        1.255E-5      108.84        0.92581       -20.66         
524.7100      0.77151       22.95         6.566E-1      -67.01        3.676E-5      144.43        0.92845       -20.13         
528.7000      0.77302       22.50         6.555E-1      -67.11        2.201E-5      119.21        0.93104       -19.56         
532.6900      0.77429       22.07         6.543E-1      -67.20        3.41E-5       58.57         0.93345       -18.97         
536.6800      0.77536       21.65         6.535E-1      -67.30        2.889E-5      103.29        0.93584       -18.37         
540.6700      0.77619       21.24         6.533E-1      -67.44        4.619E-5      179.96        0.93782       -17.76         
544.6600      0.77669       20.86         6.533E-1      -67.58        5.407E-5      29.56         0.93959       -17.15         
548.6500      0.77685       20.48         6.545E-1      -67.70        4.451E-5      54.93         0.94115       -16.55         
552.6400      0.77692       20.13         6.556E-1      -67.86        3.551E-5      27.11         0.94209       -15.98         
556.6300      0.77674       19.80         6.582E-1      -68.11        2.529E-5      -35.72        0.94293       -15.43         
560.6200      0.77651       19.50         6.611E-1      -68.37        3.363E-5      23.29         0.94333       -14.90         
564.6100      0.77629       19.24         6.632E-1      -68.74        2.709E-5      -82.00        0.94349       -14.42         
568.6000      0.77621       19.01         6.66E-1       -69.19        6.245E-5      89.50         0.9434        -13.98         
572.5900      0.77637       18.81         6.692E-1      -69.73        3.571E-5      -28.22        0.94313       -13.61         
576.5800      0.77665       18.62         6.705E-1      -70.35        1.759E-5      -104.67       0.94262       -13.32         
580.5700      0.7772        18.44         6.705E-1      -71.06        4.51E-5       -11.91        0.94179       -13.11         
584.5600      0.77779       18.28         6.701E-1      -71.74        5.218E-5      65.76         0.94044       -13.01         
588.5500      0.77876       18.13         6.685E-1      -72.43        5.554E-5      88.02         0.93859       -13.00         
592.5400      0.77998       17.99         6.673E-1      -73.09        3.801E-5      -28.50        0.93618       -13.09         
596.5300      0.78152       17.84         6.659E-1      -73.78        3.658E-5      -118.85       0.93304       -13.27         
600.5200      0.78317       17.69         6.625E-1      -74.45        3.154E-5      10.43         0.92932       -13.53         
604.5100      0.7849        17.53         6.596E-1      -75.13        3.129E-5      109.34        0.92528       -13.88         
608.5000      0.78676       17.36         6.564E-1      -75.72        5.734E-6      157.70        0.92077       -14.31         
612.4900      0.78875       17.17         6.53E-1       -76.24        9.675E-6      154.61        0.9161        -14.81         
616.4800      0.79083       16.97         6.487E-1      -76.85        6.895E-5      -57.36        0.91135       -15.39         
620.4700      0.79286       16.76         6.453E-1      -77.31        1.823E-5      6.63          0.90672       -16.02         
624.4600      0.79502       16.54         6.409E-1      -77.86        4.045E-5      -95.49        0.9022        -16.71         
