!    26/06/2026   12:56:49 
! Ref Plane: 0.000 mm
# MHZ S MA R  50
!
10.0000       0.07271       108.35        1.027E0       -2.04          
13.9900       0.0875        94.02         1.034E0       -2.88          
17.9800       0.10018       84.12         1.032E0       -3.55          
21.9700       0.11073       77.09         1.03E0        -4.21          
25.9600       0.11982       71.99         1.025E0       -4.93          
29.9500       0.12775       68.24         1.019E0       -5.28          
33.9400       0.13496       65.39         1.008E0       -5.69          
37.9300       0.14154       63.15         1.005E0       -6.42          
41.9200       0.14757       61.41         1.003E0       -7.04          
45.9100       0.15316       59.99         1.003E0       -7.62          
49.9000       0.1587        58.88         1.003E0       -8.24          
53.8900       0.1638        57.98         1.004E0       -8.98          
57.8800       0.16859       57.19         1.007E0       -9.31          
61.8700       0.17355       56.75         9.994E-1      -9.95          
65.8600       0.1783        56.38         9.977E-1      -10.70         
69.8500       0.18296       56.17         9.965E-1      -11.25         
73.8400       0.18757       56.08         9.973E-1      -11.91         
77.8300       0.19213       56.13         9.953E-1      -12.59         
81.8200       0.19663       56.27         9.959E-1      -13.57         
85.8100       0.20124       56.49         9.947E-1      -13.95         
89.8000       0.20592       56.83         9.939E-1      -14.92         
93.7900       0.21095       57.18         9.917E-1      -15.27         
97.7800       0.21623       57.62         9.913E-1      -15.93         
101.7700      0.2219        58.09         9.93E-1       -16.50         
105.7600      0.22792       58.54         9.918E-1      -16.76         
109.7500      0.23459       58.96         9.887E-1      -18.20         
113.7400      0.24158       59.38         9.866E-1      -19.17         
117.7300      0.24902       59.74         9.837E-1      -19.72         
121.7200      0.25685       60.03         9.819E-1      -20.24         
125.7100      0.265         60.23         9.789E-1      -20.86         
129.7000      0.27332       60.36         9.761E-1      -21.55         
133.6900      0.28184       60.39         9.743E-1      -22.14         
137.6800      0.29046       60.35         9.711E-1      -22.76         
141.6700      0.29916       60.21         9.69E-1       -23.37         
145.6600      0.30784       59.99         9.663E-1      -24.00         
149.6500      0.31647       59.72         9.625E-1      -24.61         
153.6400      0.32504       59.37         9.593E-1      -25.21         
157.6300      0.33356       58.96         9.565E-1      -25.80         
161.6200      0.34189       58.51         9.534E-1      -26.40         
165.6100      0.35017       58.01         9.499E-1      -27.02         
169.6000      0.35825       57.53         9.467E-1      -27.60         
173.5900      0.36613       57.02         9.429E-1      -28.16         
177.5800      0.37378       56.52         9.402E-1      -28.70         
181.5700      0.38119       56.03         9.375E-1      -29.28         
185.5600      0.38832       55.53         9.345E-1      -29.87         
189.5500      0.39524       55.07         9.315E-1      -30.43         
193.5400      0.40192       54.63         9.286E-1      -31.02         
197.5300      0.40846       54.20         9.257E-1      -31.61         
201.5200      0.41491       53.81         9.226E-1      -32.14         
205.5100      0.42132       53.45         9.194E-1      -32.74         
209.5000      0.42771       53.11         9.168E-1      -33.31         
213.4900      0.43398       52.79         9.136E-1      -33.89         
217.4800      0.44039       52.48         9.11E-1       -34.49         
221.4700      0.44683       52.19         9.08E-1       -35.06         
225.4600      0.45343       51.90         9.049E-1      -35.63         
229.4500      0.46019       51.63         9.012E-1      -36.15         
233.4400      0.467         51.35         8.978E-1      -36.77         
237.4300      0.47396       51.05         8.936E-1      -37.35         
241.4200      0.48107       50.74         8.897E-1      -37.88         
245.4100      0.48833       50.42         8.858E-1      -38.51         
249.4000      0.49556       50.08         8.818E-1      -39.04         
253.3900      0.50272       49.70         8.778E-1      -39.57         
257.3800      0.50971       49.27         8.731E-1      -40.16         
261.3700      0.51641       48.81         8.696E-1      -40.64         
265.3600      0.52258       48.32         8.659E-1      -41.15         
269.3500      0.5279        47.81         8.628E-1      -41.59         
273.3400      0.53192       47.35         8.601E-1      -42.05         
277.3300      0.53485       47.06         8.582E-1      -42.58         
281.3200      0.53849       47.09         8.569E-1      -43.27         
285.3100      0.54613       47.27         8.523E-1      -44.06         
289.3000      0.55747       47.13         8.446E-1      -44.75         
293.2900      0.56877       46.58         8.362E-1      -45.22         
297.2800      0.5783        45.80         8.291E-1      -45.58         
301.2700      0.58614       44.97         8.225E-1      -45.88         
305.2600      0.59269       44.12         8.165E-1      -46.17         
309.2500      0.59833       43.29         8.124E-1      -46.47         
313.2400      0.60326       42.46         8.08E-1       -46.70         
317.2300      0.60759       41.66         8.038E-1      -46.93         
321.2200      0.61137       40.88         8.008E-1      -47.21         
325.2100      0.61471       40.13         7.978E-1      -47.51         
329.2000      0.61754       39.41         7.959E-1      -47.81         
333.1900      0.61998       38.72         7.932E-1      -48.10         
337.1800      0.62182       38.06         7.92E-1       -48.39         
341.1700      0.62328       37.43         7.913E-1      -48.71         
345.1600      0.62455       36.85         7.898E-1      -49.05         
349.1500      0.62548       36.30         7.895E-1      -49.38         
353.1400      0.6263        35.78         7.89E-1       -49.73         
357.1300      0.62703       35.30         7.884E-1      -50.11         
361.1200      0.6277        34.85         7.88E-1       -50.51         
365.1100      0.62853       34.47         7.877E-1      -50.96         
369.1000      0.62934       34.12         7.873E-1      -51.44         
373.0900      0.63034       33.82         7.873E-1      -51.92         
377.0800      0.63165       33.55         7.863E-1      -52.48         
381.0700      0.633         33.31         7.859E-1      -53.01         
385.0600      0.63462       33.10         7.852E-1      -53.54         
389.0500      0.63648       32.90         7.842E-1      -54.10         
393.0400      0.63835       32.70         7.837E-1      -54.69         
397.0300      0.64009       32.51         7.825E-1      -55.23         
401.0200      0.64143       32.33         7.821E-1      -55.80         
405.0100      0.64244       32.24         7.825E-1      -56.46         
409.0000      0.64376       32.26         7.822E-1      -57.18         
412.9900      0.64589       32.37         7.822E-1      -58.01         
416.9800      0.64967       32.52         7.805E-1      -58.86         
420.9700      0.65497       32.64         7.767E-1      -59.83         
424.9600      0.66134       32.71         7.717E-1      -60.70         
428.9500      0.6685        32.69         7.655E-1      -61.54         
432.9400      0.67605       32.58         7.58E-1       -62.30         
436.9300      0.68375       32.40         7.501E-1      -62.94         
440.9200      0.69151       32.17         7.419E-1      -63.55         
444.9100      0.69926       31.88         7.344E-1      -64.07         
448.9000      0.70683       31.55         7.25E-1       -64.60         
452.8900      0.71424       31.17         7.169E-1      -65.02         
456.8800      0.72125       30.77         7.087E-1      -65.35         
460.8700      0.72803       30.33         7.017E-1      -65.68         
464.8600      0.73451       29.88         6.944E-1      -65.92         
468.8500      0.74047       29.39         6.877E-1      -66.20         
472.8400      0.74599       28.90         6.819E-1      -66.40         
476.8300      0.75112       28.40         6.756E-1      -66.49         
480.8200      0.75579       27.88         6.698E-1      -66.65         
484.8100      0.76006       27.37         6.649E-1      -66.80         
488.8000      0.76403       26.85         6.607E-1      -66.87         
492.7900      0.76765       26.33         6.564E-1      -66.93         
496.7800      0.77095       25.81         6.526E-1      -67.00         
500.7700      0.77385       25.31         6.49E-1       -67.09         
504.7600      0.77639       24.81         6.459E-1      -67.16         
508.7500      0.77874       24.32         6.431E-1      -67.20         
512.7400      0.78074       23.85         6.406E-1      -67.31         
516.7300      0.78245       23.38         6.383E-1      -67.41         
520.7200      0.78389       22.93         6.361E-1      -67.46         
524.7100      0.78517       22.50         6.342E-1      -67.55         
528.7000      0.78617       22.07         6.333E-1      -67.67         
532.6900      0.78695       21.67         6.321E-1      -67.78         
536.6800      0.78757       21.27         6.31E-1       -67.85         
540.6700      0.78793       20.89         6.308E-1      -68.01         
544.6600      0.78803       20.52         6.308E-1      -68.17         
548.6500      0.78774       20.15         6.321E-1      -68.32         
552.6400      0.78742       19.80         6.335E-1      -68.48         
556.6300      0.78668       19.46         6.354E-1      -68.71         
560.6200      0.78581       19.17         6.373E-1      -69.01         
564.6100      0.78493       18.91         6.395E-1      -69.34         
568.6000      0.78422       18.68         6.421E-1      -69.79         
572.5900      0.78379       18.50         6.446E-1      -70.27         
576.5800      0.78371       18.33         6.459E-1      -70.88         
580.5700      0.78402       18.17         6.457E-1      -71.57         
584.5600      0.78459       18.03         6.457E-1      -72.21         
588.5500      0.78565       17.89         6.445E-1      -72.90         
592.5400      0.78707       17.75         6.429E-1      -73.54         
596.5300      0.78881       17.59         6.416E-1      -74.23         
600.5200      0.79074       17.42         6.38E-1       -74.91         
604.5100      0.79272       17.26         6.352E-1      -75.54         
608.5000      0.79486       17.07         6.321E-1      -76.10         
612.4900      0.79713       16.86         6.288E-1      -76.68         
616.4800      0.79953       16.64         6.245E-1      -77.22         
620.4700      0.80185       16.41         6.211E-1      -77.66         
624.4600      0.80433       16.17         6.159E-1      -78.21         
628.4500      0.80686       15.91         6.127E-1      -78.59         
632.4400      0.80935       15.64         6.084E-1      -78.90         
636.4300      0.81181       15.37         6.049E-1      -79.28         
640.4200      0.81422       15.10         6.01E-1       -79.64         
644.4100      0.81676       14.82         5.968E-1      -80.04         
648.4000      0.81923       14.55         5.933E-1      -80.37         
652.3900      0.82168       14.28         5.901E-1      -80.63         
656.3800      0.82396       14.00         5.859E-1      -80.97         
660.3700      0.8263        13.73         5.823E-1      -81.27         
664.3600      0.82855       13.46         5.788E-1      -81.57         
668.3500      0.83075       13.17         5.754E-1      -81.86         
672.3400      0.83293       12.89         5.721E-1      -82.13         
676.3300      0.83482       12.61         5.681E-1      -82.35         
680.3200      0.83678       12.31         5.652E-1      -82.59         
684.3100      0.83868       12.03         5.616E-1      -82.83         
688.3000      0.84023       11.73         5.593E-1      -82.99         
692.2900      0.84171       11.45         5.562E-1      -83.19         
696.2800      0.84305       11.17         5.54E-1       -83.31         
700.2700      0.84425       10.89         5.516E-1      -83.52         
704.2600      0.84538       10.62         5.499E-1      -83.72         
708.2500      0.84652       10.36         5.489E-1      -83.93         
712.2400      0.84779       10.10         5.461E-1      -84.15         
716.2300      0.84905       9.85          5.445E-1      -84.40         
720.2200      0.85032       9.61          5.427E-1      -84.64         
724.2100      0.8517        9.37          5.405E-1      -84.83         
728.2000      0.85308       9.13          5.386E-1      -85.10         
732.1900      0.85448       8.90          5.351E-1      -85.44         
736.1800      0.85606       8.67          5.338E-1      -85.66         
740.1700      0.8576        8.44          5.313E-1      -85.91         
744.1600      0.85919       8.20          5.275E-1      -86.15         
748.1500      0.8607        7.96          5.254E-1      -86.46         
752.1400      0.86229       7.71          5.22E-1       -86.59         
756.1300      0.86388       7.46          5.197E-1      -86.77         
760.1200      0.8653        7.19          5.169E-1      -86.92         
764.1100      0.86678       6.92          5.145E-1      -87.06         
768.1000      0.86818       6.65          5.123E-1      -87.18         
772.0900      0.86947       6.37          5.095E-1      -87.26         
776.0800      0.87067       6.08          5.081E-1      -87.38         
780.0700      0.87183       5.81          5.063E-1      -87.32         
784.0600      0.87281       5.52          5.043E-1      -87.32         
788.0500      0.87364       5.23          5.03E-1       -87.39         
792.0400      0.87441       4.94          5.012E-1      -87.40         
796.0300      0.87498       4.64          4.996E-1      -87.47         
800.0200      0.87542       4.36          4.999E-1      -87.45         
804.0100      0.8758        4.07          4.99E-1       -87.50         
808.0000      0.876         3.78          4.985E-1      -87.58         
811.9900      0.87608       3.50          4.989E-1      -87.66         
815.9800      0.87596       3.22          4.986E-1      -87.69         
819.9700      0.87577       2.96          4.995E-1      -87.71         
823.9600      0.87545       2.69          4.994E-1      -87.80         
827.9500      0.87505       2.44          5.006E-1      -87.96         
831.9400      0.87457       2.19          5.008E-1      -88.07         
835.9300      0.87385       1.94          5.017E-1      -88.40         
839.9200      0.87307       1.71          5.025E-1      -88.43         
843.9100      0.87236       1.49          5.044E-1      -88.74         
847.9000      0.87165       1.28          5.046E-1      -88.99         
851.8900      0.87095       1.08          5.065E-1      -89.28         
855.8800      0.87029       0.90          5.074E-1      -89.62         
859.8700      0.86955       0.74          5.088E-1      -90.01         
863.8600      0.86886       0.59          5.101E-1      -90.45         
867.8500      0.86796       0.46          5.118E-1      -91.06         
871.8400      0.8674        0.33          5.124E-1      -91.69         
875.8300      0.86702       0.22          5.13E-1       -92.40         
879.8200      0.86682       0.12          5.129E-1      -93.09         
883.8100      0.86717       0.03          5.129E-1      -93.80         
887.8000      0.86781       -0.06         5.121E-1      -94.60         
891.7900      0.86877       -0.14         5.10E-1       -95.47         
895.7800      0.87005       -0.22         5.066E-1      -96.32         
899.7700      0.87163       -0.31         5.042E-1      -97.09         
903.7600      0.87342       -0.40         4.997E-1      -97.84         
907.7500      0.87575       -0.51         4.956E-1      -98.46         
911.7400      0.87834       -0.63         4.898E-1      -99.18         
915.7300      0.88093       -0.78         4.844E-1      -99.84         
919.7200      0.88353       -0.96         4.79E-1       -100.31        
923.7100      0.88632       -1.16         4.72E-1       -100.76        
927.7000      0.88888       -1.38         4.664E-1      -101.07        
931.6900      0.89144       -1.62         4.603E-1      -101.39        
935.6800      0.89399       -1.85         4.549E-1      -101.59        
939.6700      0.89625       -2.11         4.494E-1      -101.74        
943.6600      0.89835       -2.37         4.442E-1      -101.80        
947.6500      0.90043       -2.64         4.396E-1      -101.82        
951.6400      0.90251       -2.93         4.357E-1      -101.70        
955.6300      0.90406       -3.24         4.32E-1       -101.64        
959.6200      0.90555       -3.57         4.287E-1      -101.56        
963.6100      0.90657       -3.88         4.258E-1      -101.58        
967.6000      0.90756       -4.20         4.232E-1      -101.33        
971.5900      0.90835       -4.53         4.203E-1      -101.30        
975.5800      0.90891       -4.85         4.174E-1      -101.05        
979.5700      0.90926       -5.18         4.155E-1      -100.94        
983.5600      0.90953       -5.51         4.138E-1      -100.79        
987.5500      0.9097        -5.83         4.118E-1      -100.65        
991.5400      0.90947       -6.16         4.095E-1      -100.51        
995.5300      0.90903       -6.48         4.084E-1      -100.40        
999.5200      0.90841       -6.78         4.063E-1      -100.12        
1003.5100     0.90754       -7.07         4.051E-1      -99.80         
1007.5000     0.90657       -7.36         4.043E-1      -99.49         
1011.4900     0.90549       -7.63         4.045E-1      -99.27         
1015.4800     0.90425       -7.88         4.043E-1      -98.91         
1019.4700     0.90312       -8.13         4.048E-1      -98.60         
1023.4600     0.90187       -8.35         4.055E-1      -98.25         
1027.4500     0.90054       -8.56         4.082E-1      -98.09         
1031.4400     0.89916       -8.76         4.106E-1      -97.80         
1035.4300     0.89789       -8.93         4.137E-1      -97.65         
1039.4200     0.89644       -9.10         4.17E-1       -97.53         
1043.4100     0.89509       -9.26         4.203E-1      -97.66         
1047.4000     0.89388       -9.38         4.246E-1      -97.67         
1051.3900     0.89275       -9.50         4.298E-1      -97.69         
1055.3800     0.89184       -9.60         4.34E-1       -98.03         
1059.3700     0.89111       -9.67         4.386E-1      -98.51         
1063.3600     0.89055       -9.75         4.425E-1      -99.01         
1067.3500     0.89026       -9.81         4.471E-1      -99.61         
1071.3400     0.89025       -9.84         4.514E-1      -100.30        
1075.3300     0.89055       -9.85         4.533E-1      -101.09        
1079.3200     0.89108       -9.87         4.548E-1      -101.89        
1083.3100     0.89195       -9.89         4.561E-1      -102.68        
1087.3000     0.89309       -9.91         4.557E-1      -103.57        
1091.2900     0.89451       -9.92         4.555E-1      -104.50        
1095.2800     0.89605       -9.94         4.539E-1      -105.28        
1099.2700     0.89802       -9.97         4.522E-1      -106.08        
1103.2600     0.90013       -10.02        4.487E-1      -106.82        
1107.2500     0.9024        -10.08        4.456E-1      -107.41        
