!    03/07/2026   12:43:11 
! Ref Plane: 0.000 mm
# MHZ S MA R  50
!
10.0000       0.8004        20.75         4.705E-1      -54.16        5.228E-5      -42.43        0.91013       -20.15         
13.9900       0.84903       -24.43        2.693E-1      47.73         1.203E-5      159.02        0.91323       -19.71         
17.9800       0.65036       -53.21        6.563E-1      36.15         2.999E-5      174.75        0.91609       -19.28         
21.9700       0.4922        -68.35        8.138E-1      23.86         2.231E-5      127.72        0.91893       -18.88         
25.9600       0.39199       -76.89        8.828E-1      15.80         3.355E-5      75.91         0.92206       -18.51         
29.9500       0.32711       -82.09        9.176E-1      10.01         5.076E-5      39.95         0.92476       -18.18         
33.9400       0.28356       -85.53        9.408E-1      5.60          1.697E-5      -127.62       0.92799       -17.86         
37.9300       0.2545        -87.96        9.489E-1      2.07          2.197E-5      -97.80        0.93028       -17.56         
41.9200       0.23338       -89.93        9.557E-1      -1.09         2.355E-5      -119.32       0.93243       -17.27         
45.9100       0.2184        -91.61        9.608E-1      -3.84         6.352E-5      -70.84        0.93442       -17.00         
49.9000       0.20768       -93.21        9.636E-1      -6.36         7.379E-5      -20.52        0.93619       -16.78         
53.8900       0.20016       -94.82        9.659E-1      -8.70         4.588E-5      51.41         0.93772       -16.55         
57.8800       0.19499       -96.49        9.68E-1       -10.93        2.115E-5      68.98         0.93905       -16.30         
61.8700       0.19133       -98.37        9.702E-1      -12.81        4.965E-5      -60.83        0.94002       -16.14         
65.8600       0.18879       -100.41       9.674E-1      -14.85        3.181E-5      56.40         0.94066       -15.96         
69.8500       0.18713       -102.57       9.67E-1       -16.68        2.364E-6      -59.22        0.94083       -15.81         
73.8400       0.18616       -104.92       9.668E-1      -18.49        1.639E-5      63.93         0.94082       -15.71         
77.8300       0.18567       -107.40       9.667E-1      -20.23        3.754E-5      -135.61       0.94048       -15.60         
81.8200       0.18548       -110.08       9.659E-1      -21.98        1.533E-5      -95.60        0.93984       -15.54         
85.8100       0.18543       -112.90       9.649E-1      -23.64        3.582E-5      37.36         0.93899       -15.53         
89.8000       0.1854        -115.81       9.645E-1      -25.31        5.603E-5      -169.45       0.93786       -15.54         
93.7900       0.18521       -118.81       9.634E-1      -26.94        3.397E-5      106.63        0.93668       -15.62         
97.7800       0.18503       -121.88       9.625E-1      -28.54        3.056E-5      -38.51        0.93488       -15.66         
101.7700      0.18462       -124.98       9.613E-1      -30.06        4.428E-5      -5.71         0.93285       -15.75         
105.7600      0.18385       -128.11       9.611E-1      -31.62        5.99E-5       -106.34       0.93089       -15.87         
109.7500      0.18322       -131.19       9.581E-1      -33.12        2.238E-5      -152.11       0.9288        -16.01         
113.7400      0.18279       -134.39       9.575E-1      -34.73        2.437E-5      -67.92        0.92683       -16.15         
117.7300      0.18179       -137.60       9.566E-1      -36.37        5.642E-5      85.81         0.92481       -16.31         
121.7200      0.18087       -140.78       9.551E-1      -37.75        4.912E-5      -91.59        0.92292       -16.47         
125.7100      0.17952       -143.90       9.548E-1      -39.22        3.274E-5      -163.27       0.9212        -16.64         
129.7000      0.17809       -146.91       9.532E-1      -40.73        5.159E-5      -65.97        0.91955       -16.80         
133.6900      0.17662       -149.78       9.525E-1      -42.16        3.549E-5      71.60         0.91821       -16.96         
137.6800      0.17504       -152.57       9.511E-1      -43.61        4.29E-5       -152.78       0.91714       -17.12         
141.6700      0.17336       -155.28       9.495E-1      -45.08        4.013E-5      149.80        0.91646       -17.26         
145.6600      0.1716        -157.87       9.485E-1      -46.55        2.284E-5      -137.64       0.91602       -17.38         
149.6500      0.17018       -160.37       9.476E-1      -48.00        2.744E-5      139.55        0.91592       -17.50         
153.6400      0.16852       -162.86       9.459E-1      -49.51        1.799E-5      -81.39        0.91611       -17.59         
157.6300      0.16694       -165.27       9.446E-1      -50.95        1.082E-4      171.61        0.91673       -17.66         
161.6200      0.16543       -167.57       9.43E-1       -52.38        1.126E-4      79.35         0.9176        -17.71         
165.6100      0.16409       -169.80       9.416E-1      -53.79        3.298E-5      167.36        0.91885       -17.75         
169.6000      0.1629        -171.98       9.406E-1      -55.23        1.112E-4      -170.29       0.92034       -17.76         
173.5900      0.1618        -174.14       9.384E-1      -56.68        2.494E-5      124.24        0.92197       -17.76         
177.5800      0.16088       -176.31       9.359E-1      -58.10        7.522E-5      -169.36       0.92387       -17.75         
181.5700      0.16005       -178.45       9.342E-1      -59.57        5.732E-5      -156.11       0.92587       -17.71         
185.5600      0.15933       179.35        9.33E-1       -60.99        6.773E-5      158.10        0.92803       -17.67         
189.5500      0.15856       177.08        9.307E-1      -62.42        1.923E-5      157.03        0.93039       -17.60         
193.5400      0.15784       174.77        9.286E-1      -63.85        6.567E-5      -71.46        0.93257       -17.55         
197.5300      0.15713       172.37        9.267E-1      -65.32        6.693E-5      137.12        0.93475       -17.48         
201.5200      0.15636       169.90        9.252E-1      -66.73        3.705E-5      127.13        0.937         -17.42         
205.5100      0.15553       167.36        9.238E-1      -68.18        3.396E-5      -19.61        0.93907       -17.36         
209.5000      0.15464       164.75        9.223E-1      -69.55        5.486E-5      57.11         0.94103       -17.29         
213.4900      0.15365       162.09        9.196E-1      -70.98        5.661E-5      127.22        0.94284       -17.24         
217.4800      0.15249       159.37        9.181E-1      -72.42        1.515E-5      101.46        0.94431       -17.21         
221.4700      0.15124       156.69        9.155E-1      -73.85        1.682E-5      -151.38       0.94565       -17.18         
225.4600      0.15024       154.02        9.126E-1      -75.25        3.529E-5      -163.26       0.94664       -17.17         
229.4500      0.14921       151.13        9.099E-1      -76.58        7.377E-5      -126.36       0.94755       -17.18         
233.4400      0.14795       148.22        9.074E-1      -77.98        1.583E-5      -143.08       0.94797       -17.18         
237.4300      0.14653       145.07        9.048E-1      -79.40        2.786E-5      44.64         0.94809       -17.22         
241.4200      0.1444        141.76        9.033E-1      -80.75        9.532E-6      13.90         0.94791       -17.26         
245.4100      0.14139       138.60        9.024E-1      -82.23        2.107E-5      89.38         0.9476        -17.32         
249.4000      0.13832       135.62        9.006E-1      -83.66        2.415E-5      -34.94        0.94692       -17.39         
253.3900      0.13524       132.78        8.988E-1      -85.11        3.621E-5      39.16         0.94628       -17.47         
257.3800      0.13216       130.02        8.959E-1      -86.58        5.152E-5      179.71        0.94548       -17.56         
261.3700      0.12918       127.46        8.947E-1      -88.00        2.58E-5       140.78        0.94479       -17.66         
265.3600      0.12665       125.08        8.917E-1      -89.43        5.349E-5      83.19         0.94445       -17.76         
269.3500      0.12483       122.77        8.898E-1      -90.86        4.969E-5      138.24        0.94459       -17.91         
273.3400      0.12424       120.25        8.878E-1      -92.27        2.859E-5      2.71          0.94459       -18.13         
277.3300      0.12474       116.87        8.852E-1      -93.65        1.511E-5      -148.58       0.94332       -18.44         
281.3200      0.12474       111.94        8.823E-1      -95.06        2.835E-5      -89.06        0.93981       -18.71         
285.3100      0.12093       105.86        8.805E-1      -96.46        3.077E-6      122.90        0.93548       -18.88         
289.3000      0.11301       100.38        8.772E-1      -97.87        4.921E-5      -76.83        0.93154       -18.96         
293.2900      0.10396       96.49         8.737E-1      -99.34        6.312E-5      113.52        0.92836       -18.98         
297.2800      0.09583       93.92         8.701E-1      -100.80       3.291E-5      125.17        0.9258        -18.96         
301.2700      0.08914       92.16         8.655E-1      -102.21       1.644E-5      18.65         0.92385       -18.91         
305.2600      0.0837        90.86         8.616E-1      -103.62       7.037E-5      -158.61       0.92241       -18.83         
309.2500      0.0793        89.83         8.581E-1      -105.06       3.372E-5      -34.37        0.92115       -18.72         
313.2400      0.07585       88.99         8.549E-1      -106.49       6.461E-5      -47.23        0.92042       -18.57         
317.2300      0.07321       88.21         8.506E-1      -107.89       4.923E-5      -22.82        0.92006       -18.39         
321.2200      0.07129       87.46         8.468E-1      -109.26       6.861E-5      -5.04         0.92006       -18.18         
325.2100      0.07015       86.47         8.431E-1      -110.69       6.648E-5      117.39        0.92023       -17.95         
329.2000      0.06957       85.30         8.391E-1      -112.08       2.123E-5      -90.00        0.92091       -17.68         
333.1900      0.0695        83.81         8.358E-1      -113.54       3.612E-5      -177.53       0.92179       -17.40         
337.1800      0.06996       82.03         8.322E-1      -114.88       1.328E-5      -120.52       0.92289       -17.09         
341.1700      0.07084       79.95         8.295E-1      -116.33       2.474E-5      97.58         0.92413       -16.77         
345.1600      0.07208       77.43         8.257E-1      -117.74       2.444E-5      -102.63       0.92562       -16.45         
349.1500      0.07359       74.54         8.218E-1      -119.11       5.593E-5      -139.36       0.92735       -16.12         
353.1400      0.07528       71.28         8.171E-1      -120.54       5.325E-5      155.13        0.92919       -15.81         
357.1300      0.07715       67.66         8.131E-1      -122.03       3.199E-5      43.77         0.93117       -15.49         
361.1200      0.07907       63.76         8.087E-1      -123.39       1.952E-5      153.26        0.93308       -15.21         
365.1100      0.0811        59.56         8.047E-1      -124.82       4.671E-5      -152.32       0.93522       -14.94         
369.1000      0.08312       55.17         8.007E-1      -126.29       2.587E-5      132.63        0.93727       -14.69         
373.0900      0.08511       50.59         7.961E-1      -127.69       2.188E-5      -174.27       0.93933       -14.49         
377.0800      0.08698       45.80         7.916E-1      -129.15       4.768E-5      119.04        0.94145       -14.32         
381.0700      0.08878       40.94         7.881E-1      -130.58       6.013E-5      152.62        0.94312       -14.18         
385.0600      0.09047       36.05         7.841E-1      -131.97       7.067E-5      120.82        0.94435       -14.09         
389.0500      0.09206       31.17         7.805E-1      -133.41       2.938E-5      170.56        0.94536       -14.05         
393.0400      0.09375       26.38         7.754E-1      -134.81       3.441E-5      -0.81         0.94607       -14.06         
397.0300      0.09569       21.69         7.713E-1      -136.26       8.391E-5      -144.24       0.94635       -14.12         
401.0200      0.09806       17.05         7.665E-1      -137.61       4.476E-5      174.46        0.94609       -14.22         
405.0100      0.10125       12.24         7.623E-1      -139.01       3.933E-5      106.69        0.94567       -14.38         
409.0000      0.10505       7.07          7.581E-1      -140.43       2.936E-5      -12.72        0.94516       -14.58         
412.9900      0.10914       1.45          7.523E-1      -141.77       1.402E-5      -135.14       0.94463       -14.85         
416.9800      0.11301       -4.62         7.473E-1      -143.13       1.346E-5      -22.57        0.94407       -15.18         
420.9700      0.11637       -10.82        7.413E-1      -144.53       6.085E-5      -154.99       0.94297       -15.60         
424.9600      0.11932       -17.01        7.36E-1       -145.88       3.261E-5      -107.58       0.94142       -16.08         
428.9500      0.12178       -23.11        7.299E-1      -147.19       2.606E-5      -109.27       0.93926       -16.62         
432.9400      0.124         -29.02        7.246E-1      -148.49       8.778E-6      119.13        0.93677       -17.18         
436.9300      0.12602       -34.77        7.191E-1      -149.79       4.56E-5       -63.83        0.9338        -17.76         
440.9200      0.12784       -40.28        7.133E-1      -151.04       6.093E-5      75.30         0.93066       -18.36         
444.9100      0.12964       -45.61        7.086E-1      -152.30       5.107E-5      -107.43       0.92752       -18.95         
448.9000      0.13124       -50.71        7.032E-1      -153.59       5.39E-5       -105.47       0.92436       -19.53         
452.8900      0.13286       -55.59        6.975E-1      -154.85       9.836E-5      23.27         0.92138       -20.09         
456.8800      0.13427       -60.26        6.923E-1      -156.07       1.885E-5      -114.31       0.91877       -20.62         
460.8700      0.13559       -64.71        6.869E-1      -157.31       7.521E-5      112.97        0.91634       -21.11         
464.8600      0.13673       -68.88        6.824E-1      -158.51       6.106E-5      -69.04        0.91421       -21.57         
468.8500      0.1377        -72.87        6.781E-1      -159.77       8.947E-5      -65.28        0.91256       -21.96         
472.8400      0.13851       -76.61        6.726E-1      -161.01       1.342E-5      178.32        0.91132       -22.29         
476.8300      0.13916       -80.10        6.679E-1      -162.26       1.065E-4      44.44         0.91067       -22.56         
480.8200      0.13962       -83.39        6.636E-1      -163.49       3.484E-5      28.60         0.91029       -22.75         
484.8100      0.13987       -86.46        6.589E-1      -164.74       3.00E-5       -128.59       0.9103        -22.87         
488.8000      0.13996       -89.30        6.553E-1      -166.00       5.062E-5      -92.42        0.91084       -22.92         
492.7900      0.13993       -91.94        6.504E-1      -167.23       2.386E-5      -69.21        0.91172       -22.89         
496.7800      0.13978       -94.39        6.46E-1       -168.55       2.515E-5      178.56        0.91296       -22.77         
500.7700      0.13953       -96.60        6.419E-1      -169.76       2.739E-5      40.28         0.91458       -22.58         
504.7600      0.13935       -98.64        6.378E-1      -171.02       3.212E-5      118.96        0.91639       -22.32         
508.7500      0.13916       -100.54       6.335E-1      -172.27       2.547E-5      -58.25        0.91851       -21.99         
512.7400      0.13902       -102.26       6.286E-1      -173.61       1.206E-4      10.81         0.92072       -21.59         
516.7300      0.13892       -103.86       6.252E-1      -174.87       2.961E-5      66.54         0.92326       -21.15         
520.7200      0.13896       -105.38       6.206E-1      -176.18       1.255E-5      108.84        0.92581       -20.66         
524.7100      0.13914       -106.78       6.16E-1       -177.42       3.676E-5      144.43        0.92845       -20.13         
528.7000      0.13938       -108.02       6.107E-1      -178.74       2.201E-5      119.21        0.93104       -19.56         
532.6900      0.13976       -109.21       6.064E-1      179.98        3.41E-5       58.57         0.93345       -18.97         
536.6800      0.14027       -110.31       6.021E-1      178.74        2.889E-5      103.29        0.93584       -18.37         
540.6700      0.14087       -111.34       5.977E-1      177.46        4.619E-5      179.96        0.93782       -17.76         
544.6600      0.14157       -112.34       5.93E-1       176.17        5.407E-5      29.56         0.93959       -17.15         
548.6500      0.14253       -113.28       5.881E-1      174.87        4.451E-5      54.93         0.94115       -16.55         
552.6400      0.14384       -114.20       5.843E-1      173.65        3.551E-5      27.11         0.94209       -15.98         
556.6300      0.14545       -115.13       5.795E-1      172.37        2.529E-5      -35.72        0.94293       -15.43         
560.6200      0.14752       -116.07       5.744E-1      171.17        3.363E-5      23.29         0.94333       -14.90         
564.6100      0.15003       -117.14       5.696E-1      169.92        2.709E-5      -82.00        0.94349       -14.42         
568.6000      0.15293       -118.32       5.643E-1      168.69        6.245E-5      89.50         0.9434        -13.98         
572.5900      0.15607       -119.64       5.599E-1      167.51        3.571E-5      -28.22        0.94313       -13.61         
576.5800      0.15931       -121.13       5.547E-1      166.41        1.759E-5      -104.67       0.94262       -13.32         
580.5700      0.16274       -122.83       5.494E-1      165.25        4.51E-5       -11.91        0.94179       -13.11         
584.5600      0.1661        -124.63       5.449E-1      164.08        5.218E-5      65.76         0.94044       -13.01         
588.5500      0.16918       -126.50       5.401E-1      162.97        5.554E-5      88.02         0.93859       -13.00         
592.5400      0.17226       -128.43       5.361E-1      161.90        3.801E-5      -28.50        0.93618       -13.09         
596.5300      0.17516       -130.43       5.317E-1      160.84        3.658E-5      -118.85       0.93304       -13.27         
600.5200      0.17776       -132.40       5.268E-1      159.70        3.154E-5      10.43         0.92932       -13.53         
604.5100      0.18038       -134.38       5.227E-1      158.52        3.129E-5      109.34        0.92528       -13.88         
608.5000      0.18277       -136.34       5.179E-1      157.56        5.734E-6      157.70        0.92077       -14.31         
612.4900      0.18493       -138.26       5.143E-1      156.40        9.675E-6      154.61        0.9161        -14.81         
616.4800      0.18695       -140.17       5.107E-1      155.38        6.895E-5      -57.36        0.91135       -15.39         
620.4700      0.18875       -142.09       5.061E-1      154.17        1.823E-5      6.63          0.90672       -16.02         
624.4600      0.1905        -144.04       5.02E-1       153.06        4.045E-5      -95.49        0.9022        -16.71         
